Title: CKT2
Date: Thu Oct 19 17:12:00 2017
Plotname: Transient analysis
Flags: real
No. Variables: 3
No. Points: 1001    
Command: version 4.3.1
Variables:
 0 time S
 1 v(5) V
 2 v(6) V
Values:
 0	0.000000000000000e+00
	3.009746317290531e-07
	0.000000000000000e+00
 1	1.000000000000000e-12
	3.374295971999109e-05
	1.451526746356769e-05
 2	2.000000000000000e-12
	3.186466783245100e-05
	9.289569581612768e-06
 3	3.000000000000000e-12
	2.321674542310235e-05
	-5.236486526164859e-06
 4	4.000000000000000e-12
	1.559344533860159e-05
	-1.660701036979720e-05
 5	5.000000000000000e-12
	9.850368105022264e-06
	-2.351373051769762e-05
 6	5.999999999999999e-12
	5.847309230790649e-06
	-2.762948607294681e-05
 7	6.999999999999999e-12
	3.221942399921077e-06
	-3.004401732202765e-05
 8	8.000000000000000e-12
	1.423025078685510e-06
	-3.154339671962373e-05
 9	9.000000000000000e-12
	1.929144650732253e-07
	-3.242756389183384e-05
 10	9.999999999999999e-12
	-6.433122424708893e-07
	-3.288688575271110e-05
 11	1.100000000000000e-11
	-1.183154839289148e-06
	-3.302517337395082e-05
 12	1.200000000000000e-11
	-1.550910647056121e-06
	-3.297485266615562e-05
 13	1.300000000000000e-11
	-1.796779776111629e-06
	-3.278773636289673e-05
 14	1.400000000000000e-11
	-1.956137555441440e-06
	-3.249918209233884e-05
 15	1.500000000000000e-11
	-2.047537981675990e-06
	-3.212421831997816e-05
 16	1.600000000000000e-11
	-2.098156603296218e-06
	-3.169068061899265e-05
 17	1.700000000000000e-11
	-2.120000714910087e-06
	-3.120943247534737e-05
 18	1.800000000000000e-11
	-2.121136638165292e-06
	-3.068736414853592e-05
 19	1.900000000000000e-11
	-2.105978308905939e-06
	-3.012521002505507e-05
 20	2.000000000000000e-11
	-2.080271693145769e-06
	-2.952977449335479e-05
 21	2.100000000000000e-11
	-2.047137537937825e-06
	-2.890453974955179e-05
 22	2.200000000000000e-11
	-2.008428554432851e-06
	-2.825110412153205e-05
 23	2.300000000000000e-11
	-1.965141344742650e-06
	-2.756809883244129e-05
 24	2.400000000000000e-11
	-1.918488980812451e-06
	-2.685764189072981e-05
 25	2.500000000000000e-11
	-1.869323081812366e-06
	-2.612218026040973e-05
 26	2.600000000000000e-11
	-1.818075739612351e-06
	-2.536239932851699e-05
 27	2.700000000000000e-11
	-1.764945766171953e-06
	-2.457721340206253e-05
 28	2.800000000000000e-11
	-1.710174706154180e-06
	-2.376705193743278e-05
 29	2.900000000000000e-11
	-1.654064303741919e-06
	-2.293457934548677e-05
 30	3.000000000000000e-11
	-1.596729863887093e-06
	-2.208039697548711e-05
 31	3.100000000000000e-11
	-1.538208700081185e-06
	-2.120410393013768e-05
 32	3.200000000000001e-11
	-1.478516602855188e-06
	-2.030515290749427e-05
 33	3.300000000000001e-11
	-1.417835867563955e-06
	-1.938656016314178e-05
 34	3.400000000000001e-11
	-1.356216022019947e-06
	-1.844899756038479e-05
 35	3.500000000000001e-11
	-1.293681351024024e-06
	-1.749273083015909e-05
 36	3.600000000000002e-11
	-1.230184559314292e-06
	-1.651661326122633e-05
 37	3.700000000000002e-11
	-1.165887922775630e-06
	-1.552389097525892e-05
 38	3.800000000000002e-11
	-1.100831541022366e-06
	-1.451533780712332e-05
 39	3.900000000000003e-11
	-1.035055657065553e-06
	-1.349175245065454e-05
 40	4.000000000000003e-11
	-9.684978474614822e-07
	-1.245179630908326e-05
 41	4.100000000000003e-11
	-9.013141519729922e-07
	-1.139871684512383e-05
 42	4.200000000000004e-11
	-8.335476488497962e-07
	-1.033340650854269e-05
 43	4.300000000000004e-11
	-7.652419569030358e-07
	-9.256774472183229e-06
 44	4.400000000000004e-11
	-6.963803675833907e-07
	-8.168468428717226e-06
 45	4.500000000000004e-11
	-6.270700934746588e-07
	-7.070745290349718e-06
 46	4.600000000000005e-11
	-5.573703516660447e-07
	-5.964860246361689e-06
 47	4.700000000000005e-11
	-4.873285973012762e-07
	-4.851828545316889e-06
 48	4.800000000000005e-11
	-4.169658287792553e-07
	-3.732129098826518e-06
 49	4.900000000000006e-11
	-3.463571468513229e-07
	-2.607379808109797e-06
 50	5.000000000000006e-11
	-2.755663551260025e-07
	-1.478967168844721e-06
 51	5.100000000000006e-11
	-2.046430798476944e-07
	-3.479947182094613e-07
 52	5.200000000000007e-11
	-1.336345863393272e-07
	7.844381166384063e-07
 53	5.300000000000007e-11
	-6.260176657954748e-08
	1.916949768010414e-06
 54	5.400000000000007e-11
	8.400065635381729e-09
	3.048299383959069e-06
 55	5.500000000000008e-11
	7.932128648573947e-08
	4.177329585854076e-06
 56	5.600000000000008e-11
	1.501013112538556e-07
	5.302585371725513e-06
 57	5.700000000000008e-11
	2.206746139008731e-07
	6.422487867867269e-06
 58	5.800000000000008e-11
	2.910071830922459e-07
	7.536250299594401e-06
 59	5.900000000000008e-11
	3.610513393636218e-07
	8.642711548135845e-06
 60	6.000000000000008e-11
	4.307460084776815e-07
	9.740364510526624e-06
 61	6.100000000000007e-11
	5.000023784678585e-07
	1.082699949998852e-05
 62	6.200000000000007e-11
	5.688189948432359e-07
	1.190259500075982e-05
 63	6.300000000000007e-11
	6.371514569044235e-07
	1.296604461828188e-05
 64	6.400000000000006e-11
	7.049497664875906e-07
	1.401610053783503e-05
 65	6.500000000000006e-11
	7.720844356006722e-07
	1.504952506487441e-05
 66	6.600000000000006e-11
	8.385956701599159e-07
	1.606733724155649e-05
 67	6.700000000000005e-11
	9.044430413533570e-07
	1.706853993997839e-05
 68	6.800000000000005e-11
	9.695870780241298e-07
	1.805216721306805e-05
 69	6.900000000000005e-11
	1.033873396171413e-06
	1.901440051911704e-05
 70	7.000000000000004e-11
	1.097359752457278e-06
	1.995672637765864e-05
 71	7.100000000000004e-11
	1.160020349153336e-06
	2.087855401895874e-05
 72	7.200000000000004e-11
	1.221820006858491e-06
	2.177907061367983e-05
 73	7.300000000000003e-11
	1.282609774210297e-06
	2.265467887873477e-05
 74	7.400000000000003e-11
	1.342427121833176e-06
	2.350639966602403e-05
 75	7.500000000000003e-11
	1.401275402788859e-06
	2.433441249589945e-05
 76	7.600000000000002e-11
	1.459123868609045e-06
	2.513806771958512e-05
 77	7.700000000000002e-11
	1.515838533830153e-06
	2.591423558943078e-05
 78	7.800000000000001e-11
	1.571420868049706e-06
	2.666309476928638e-05
 79	7.900000000000001e-11
	1.625909967862612e-06
	2.738572366623818e-05
 80	8.000000000000001e-11
	1.679279612599602e-06
	2.808162625769904e-05
 81	8.100000000000000e-11
	1.731418831606088e-06
	2.874831251135078e-05
 82	8.200000000000000e-11
	1.782280140958253e-06
	2.938482877649393e-05
 83	8.300000000000000e-11
	1.831943342611400e-06
	2.999321792600003e-05
 84	8.399999999999999e-11
	1.880386635980038e-06
	3.057311710734502e-05
 85	8.499999999999999e-11
	1.927528354180859e-06
	3.112278580149318e-05
 86	8.599999999999999e-11
	1.973261630233975e-06
	3.163993438946786e-05
 87	8.699999999999998e-11
	2.017710123921445e-06
	3.212759113382279e-05
 88	8.799999999999998e-11
	2.060855917707271e-06
	3.258550377912948e-05
 89	8.899999999999998e-11
	2.102650983767123e-06
	3.301274583085210e-05
 90	8.999999999999997e-11
	2.142920618341622e-06
	3.340556470811025e-05
 91	9.099999999999997e-11
	2.181833805015868e-06
	3.376796703202813e-05
 92	9.199999999999997e-11
	2.219375413222837e-06
	3.409979197126403e-05
 93	9.299999999999996e-11
	2.255530737935610e-06
	3.440089747242145e-05
 94	9.399999999999996e-11
	2.290058419461716e-06
	3.466619403891100e-05
 95	9.499999999999996e-11
	2.323164538506597e-06
	3.490045272317978e-05
 96	9.599999999999995e-11
	2.354837982405494e-06
	3.510365320344634e-05
 97	9.699999999999995e-11
	2.385064758353344e-06
	3.527572835557390e-05
 98	9.799999999999995e-11
	2.413631072351225e-06
	3.541240277187379e-05
 99	9.899999999999994e-11
	2.440678415395124e-06
	3.551701197612486e-05
 100	9.999999999999994e-11
	2.466231629692613e-06
	3.559038729671928e-05
 101	1.009999999999999e-10
	2.490275304650104e-06
	3.563252796706013e-05
 102	1.019999999999999e-10
	2.512623282333355e-06
	3.564000942463727e-05
 103	1.029999999999999e-10
	2.533344005320659e-06
	3.561467709415783e-05
 104	1.039999999999999e-10
	2.552499240083398e-06
	3.555820871955041e-05
 105	1.049999999999999e-10
	2.570069782125678e-06
	3.547066406962620e-05
 106	1.059999999999999e-10
	2.585896611301893e-06
	3.534948509355309e-05
 107	1.069999999999999e-10
	2.599965603552946e-06
	3.519501852591204e-05
 108	1.079999999999999e-10
	2.612377433040927e-06
	3.500976522430686e-05
 109	1.089999999999999e-10
	2.623106589222778e-06
	3.479384120722944e-05
 110	1.099999999999999e-10
	2.632021234602000e-06
	3.454555128729616e-05
 111	1.109999999999999e-10
	2.639012127911699e-06
	3.426377496060146e-05
 112	1.119999999999999e-10
	2.644223035768369e-06
	3.395179600321662e-05
 113	1.129999999999999e-10
	2.647619592059802e-06
	3.360978334855495e-05
 114	1.139999999999999e-10
	2.649098926748668e-06
	3.323688325741921e-05
 115	1.149999999999999e-10
	2.648439036443648e-06
	3.283057583583134e-05
 116	1.159999999999999e-10
	2.645834414207162e-06
	3.239487201508947e-05
 117	1.169999999999999e-10
	2.641239405327302e-06
	3.192999137543976e-05
 118	1.179999999999999e-10
	2.634584925856387e-06
	3.143588418082795e-05
 119	1.189999999999999e-10
	2.625511594454797e-06
	3.090873373570580e-05
 120	1.199999999999999e-10
	2.614277024825122e-06
	3.035320825100551e-05
 121	1.209999999999999e-10
	2.600822276480756e-06
	2.976957758207896e-05
 122	1.219999999999999e-10
	2.585085179733973e-06
	2.915812336284324e-05
 123	1.229999999999999e-10
	2.566644541387479e-06
	2.851513332338149e-05
 124	1.239999999999999e-10
	2.545731215094506e-06
	2.784458720973371e-05
 125	1.249999999999999e-10
	2.522308164366846e-06
	2.714722918055466e-05
 126	1.259999999999998e-10
	2.496299059707657e-06
	2.642339567638956e-05
 127	1.269999999999998e-10
	2.467288737639913e-06
	2.567029410226587e-05
 128	1.279999999999998e-10
	2.435398542124130e-06
	2.489048405023879e-05
 129	1.289999999999998e-10
	2.400650733805426e-06
	2.408540461271427e-05
 130	1.299999999999998e-10
	2.362956870807819e-06
	2.325545771029671e-05
 131	1.309999999999998e-10
	2.321922612047090e-06
	2.239873726061929e-05
 132	1.319999999999998e-10
	2.277533427865944e-06
	2.151653723455937e-05
 133	1.329999999999998e-10
	2.229895894707912e-06
	2.061091989934493e-05
 134	1.339999999999998e-10
	2.178916102164967e-06
	1.968237294211914e-05
 135	1.349999999999998e-10
	2.124246523748565e-06
	1.872983880546298e-05
 136	1.359999999999998e-10
	2.065710209848044e-06
	1.775355831111670e-05
 137	1.369999999999998e-10
	2.003531290507516e-06
	1.675612871858759e-05
 138	1.379999999999998e-10
	1.937624289807195e-06
	1.573815644182761e-05
 139	1.389999999999998e-10
	1.867726784585395e-06
	1.469938573000467e-05
 140	1.399999999999998e-10
	1.793484056805879e-06
	1.363929910714229e-05
 141	1.409999999999998e-10
	1.715275807885655e-06
	1.256091145420907e-05
 142	1.419999999999998e-10
	1.633048792248264e-06
	1.146499470646560e-05
 143	1.429999999999998e-10
	1.546673157504468e-06
	1.035202604960603e-05
 144	1.439999999999998e-10
	1.455631998764076e-06
	9.221141557177359e-06
 145	1.449999999999998e-10
	1.360493192359974e-06
	8.075602297389351e-06
 146	1.459999999999998e-10
	1.261270176934508e-06
	6.916401980248734e-06
 147	1.469999999999998e-10
	1.157997350449765e-06
	5.744592898081648e-06
 148	1.479999999999998e-10
	1.050110647331712e-06
	4.559648260607066e-06
 149	1.489999999999998e-10
	9.383312872077515e-07
	3.364692365927037e-06
 150	1.499999999999998e-10
	8.227939506707485e-07
	2.161030606370779e-06
 151	1.509999999999998e-10
	7.036494426794140e-07
	9.499954248378374e-07
 152	1.519999999999998e-10
	5.806511478050123e-07
	-2.676129038862126e-07
 153	1.529999999999998e-10
	4.544155045143249e-07
	-1.489467657342528e-06
 154	1.539999999999998e-10
	3.253013547403671e-07
	-2.713851876074579e-06
 155	1.549999999999997e-10
	1.936049795106714e-07
	-3.939152142008580e-06
 156	1.559999999999997e-10
	5.945336229465301e-08
	-5.163420750594065e-06
 157	1.569999999999997e-10
	-7.659384794721612e-08
	-6.384665308975845e-06
 158	1.579999999999997e-10
	-2.140122645539197e-07
	-7.601164362484464e-06
 159	1.589999999999997e-10
	-3.523664161188946e-07
	-8.811106658495911e-06
 160	1.599999999999997e-10
	-4.911920420339677e-07
	-1.001179101314956e-05
 161	1.609999999999997e-10
	-6.299010184700963e-07
	-1.120103087316412e-05
 162	1.619999999999997e-10
	-7.679597608190555e-07
	-1.237767509402320e-05
 163	1.629999999999997e-10
	-9.048551878637006e-07
	-1.353989898425497e-05
 164	1.639999999999997e-10
	-1.039939775927864e-06
	-1.468484740731115e-05
 165	1.649999999999997e-10
	-1.172503014251305e-06
	-1.580962812659227e-05
 166	1.659999999999997e-10
	-1.302233615769563e-06
	-1.691430067996530e-05
 167	1.669999999999997e-10
	-1.428652516032634e-06
	-1.799727194978072e-05
 168	1.679999999999997e-10
	-1.551164442376508e-06
	-1.905620529498846e-05
 169	1.689999999999997e-10
	-1.668878490553124e-06
	-2.008710221817509e-05
 170	1.699999999999997e-10
	-1.781924815456531e-06
	-2.109173593892140e-05
 171	1.709999999999997e-10
	-1.889976967575892e-06
	-2.206894921042359e-05
 172	1.719999999999997e-10
	-1.992709295319314e-06
	-2.301745315256789e-05
 173	1.729999999999997e-10
	-2.089060058223647e-06
	-2.393190338452221e-05
 174	1.739999999999997e-10
	-2.179692999129367e-06
	-2.481596001584714e-05
 175	1.749999999999997e-10
	-2.264499167189593e-06
	-2.566896547087396e-05
 176	1.759999999999997e-10
	-2.343419518023427e-06
	-2.649036813215782e-05
 177	1.769999999999997e-10
	-2.415588344771652e-06
	-2.727499109332398e-05
 178	1.779999999999997e-10
	-2.481815280737449e-06
	-2.802658232540061e-05
 179	1.789999999999997e-10
	-2.542287237400084e-06
	-2.874543002474014e-05
 180	1.799999999999997e-10
	-2.597127090056167e-06
	-2.943135456486293e-05
 181	1.809999999999997e-10
	-2.645848916444490e-06
	-3.008024335791095e-05
 182	1.819999999999997e-10
	-2.689095783899989e-06
	-3.069463234521386e-05
 183	1.829999999999997e-10
	-2.727299100158726e-06
	-3.127589504601346e-05
 184	1.839999999999996e-10
	-2.760675077283861e-06
	-3.182405318791823e-05
 185	1.849999999999996e-10
	-2.789031910072091e-06
	-3.233600266446052e-05
 186	1.859999999999996e-10
	-2.812774098040251e-06
	-3.281276889617843e-05
 187	1.869999999999996e-10
	-2.832435678586610e-06
	-3.325664799825431e-05
 188	1.879999999999996e-10
	-2.848241677879712e-06
	-3.366773091489425e-05
 189	1.889999999999996e-10
	-2.860170747246763e-06
	-3.404381836145635e-05
 190	1.899999999999996e-10
	-2.868399484781329e-06
	-3.438432204797222e-05
 191	1.909999999999996e-10
	-2.873454931069966e-06
	-3.469234949477064e-05
 192	1.919999999999996e-10
	-2.875522280309116e-06
	-3.496799868887202e-05
 193	1.929999999999996e-10
	-2.874655277187275e-06
	-3.520990900447330e-05
 194	1.939999999999996e-10
	-2.870851717988901e-06
	-3.541588070985345e-05
 195	1.949999999999996e-10
	-2.864580982104734e-06
	-3.558978909965348e-05
 196	1.959999999999996e-10
	-2.855975460656868e-06
	-3.573172968601052e-05
 197	1.969999999999996e-10
	-2.845113842905142e-06
	-3.584115764817912e-05
 198	1.979999999999996e-10
	-2.831866318087966e-06
	-3.591430965515171e-05
 199	1.989999999999996e-10
	-2.816639595074407e-06
	-3.595581973166448e-05
 200	1.999999999999996e-10
	-2.799520394883843e-06
	-3.596579491578847e-05
 201	2.009999999999996e-10
	-2.780586800867125e-06
	-3.594434751090588e-05
 202	2.019999999999996e-10
	-2.759644077378700e-06
	-3.588668337101631e-05
 203	2.029999999999996e-10
	-2.737027253684180e-06
	-3.579772433766653e-05
 204	2.039999999999996e-10
	-2.712798990932817e-06
	-3.567776092949442e-05
 205	2.049999999999996e-10
	-2.687007748269889e-06
	-3.552693900685089e-05
 206	2.059999999999996e-10
	-2.659500870426024e-06
	-3.534136988738981e-05
 207	2.069999999999996e-10
	-2.630477558281541e-06
	-3.512439243658496e-05
 208	2.079999999999996e-10
	-2.600016669229166e-06
	-3.487710910135627e-05
 209	2.089999999999996e-10
	-2.568148263001994e-06
	-3.459971326032461e-05
 210	2.099999999999996e-10
	-2.534753990442942e-06
	-3.428922470984770e-05
 211	2.109999999999996e-10
	-2.499934256758383e-06
	-3.394746595406711e-05
 212	2.119999999999996e-10
	-2.463786454402708e-06
	-3.357632056745791e-05
 213	2.129999999999995e-10
	-2.426330368161974e-06
	-3.317603945659926e-05
 214	2.139999999999995e-10
	-2.387479696983709e-06
	-3.274453796182001e-05
 215	2.149999999999995e-10
	-2.347257441254010e-06
	-3.228221557116559e-05
 216	2.159999999999995e-10
	-2.305782612669414e-06
	-3.179168470964438e-05
 217	2.169999999999995e-10
	-2.263070358532622e-06
	-3.127326132753001e-05
 218	2.179999999999995e-10
	-2.219066405182919e-06
	-3.072572412972407e-05
 219	2.189999999999995e-10
	-2.173729701555920e-06
	-3.014817981656201e-05
 220	2.199999999999995e-10
	-2.127203062016946e-06
	-2.954389413860636e-05
 221	2.209999999999995e-10
	-2.079500993095481e-06
	-2.891325461378475e-05
 222	2.219999999999995e-10
	-2.030601667177883e-06
	-2.825584997425619e-05
 223	2.229999999999995e-10
	-1.980410421961001e-06
	-2.756966902956049e-05
 224	2.239999999999995e-10
	-1.929094236059291e-06
	-2.685853059884476e-05
 225	2.249999999999995e-10
	-1.876669919616821e-06
	-2.612290045410456e-05
 226	2.259999999999995e-10
	-1.823147739204388e-06
	-2.536310107838479e-05
 227	2.269999999999995e-10
	-1.768390275802062e-06
	-2.457622990397726e-05
 228	2.279999999999995e-10
	-1.712586501483191e-06
	-2.376653172895692e-05
 229	2.289999999999995e-10
	-1.655757704316215e-06
	-2.293455812779073e-05
 230	2.299999999999995e-10
	-1.597926429650921e-06
	-2.208088148770901e-05
 231	2.309999999999995e-10
	-1.538979038059828e-06
	-2.120313962832488e-05
 232	2.319999999999995e-10
	-1.479068007340559e-06
	-2.030469955793326e-05
 233	2.329999999999995e-10
	-1.418238288619647e-06
	-1.938658931339545e-05
 234	2.339999999999995e-10
	-1.356518588782010e-06
	-1.844947756388444e-05
 235	2.349999999999995e-10
	-1.293840572539112e-06
	-1.749196240869127e-05
 236	2.359999999999995e-10
	-1.230306803410565e-06
	-1.651627214216563e-05
 237	2.369999999999995e-10
	-1.165988091374553e-06
	-1.552394272130103e-05
 238	2.379999999999995e-10
	-1.100919771822180e-06
	-1.451574734583152e-05
 239	2.389999999999995e-10
	-1.035075424761090e-06
	-1.349114847773978e-05
 240	2.399999999999995e-10
	-9.685193713708189e-07
	-1.245152135366524e-05
 241	2.409999999999995e-10
	-9.013400538582318e-07
	-1.139874337200125e-05
 242	2.419999999999995e-10
	-8.335789953356058e-07
	-1.033369753411146e-05
 243	2.429999999999995e-10
	-7.652450821716215e-07
	-9.256578136105930e-06
 244	2.439999999999995e-10
	-6.963792077517981e-07
	-8.168255602595268e-06
 245	2.449999999999995e-10
	-6.270763087322262e-07
	-7.070740231075299e-06
 246	2.459999999999995e-10
	-5.573827675904015e-07
	-5.965022957363687e-06
 247	2.469999999999995e-10
	-4.873330705890053e-07
	-4.851852834001923e-06
 248	2.479999999999995e-10
	-4.169621040224083e-07
	-3.732002760214069e-06
 249	2.489999999999995e-10
	-3.463580222881982e-07
	-2.607361394551975e-06
 250	2.499999999999994e-10
	-2.755700606155256e-07
	-1.479013574980018e-06
 251	2.509999999999994e-10
	-2.046463163666102e-07
	-3.480367681873100e-07
 252	2.519999999999994e-10
	-1.336345527991562e-07
	7.844415346222181e-07
 253	2.529999999999994e-10
	-6.260206704920769e-08
	1.916951561694913e-06
 254	2.539999999999994e-10
	8.401337317938183e-09
	3.048344812483214e-06
 255	2.549999999999994e-10
	7.932603572560000e-08
	4.177464255070359e-06
 256	2.559999999999994e-10
	1.500950069060135e-07
	5.302427272393657e-06
 257	2.569999999999994e-10
	2.206725506716870e-07
	6.422438436560328e-06
 258	2.579999999999994e-10
	2.910112337632863e-07
	7.536355200982730e-06
 259	2.589999999999994e-10
	3.610633476914845e-07
	8.643016147328876e-06
 260	2.599999999999994e-10
	4.307318877596697e-07
	9.740011040108801e-06
 261	2.609999999999994e-10
	4.999969685555651e-07
	1.082686467292636e-05
 262	2.619999999999994e-10
	5.688240564553814e-07
	1.190272270184991e-05
 263	2.629999999999994e-10
	6.371687077796809e-07
	1.296647774672543e-05
 264	2.639999999999994e-10
	7.049268900757068e-07
	1.401552768577648e-05
 265	2.649999999999994e-10
	7.720744557534366e-07
	1.504927537417215e-05
 266	2.659999999999994e-10
	8.386001991095343e-07
	1.606745067846354e-05
 267	2.669999999999994e-10
	9.044636425338575e-07
	1.706905491921082e-05
 268	2.679999999999994e-10
	9.695652175761755e-07
