CKT2
Transient analysis                                    Mon Jun 25 15:32:56 2018
--------------------------------------------------------------------------------
Index   time            L2#branch       v(13)           v(14)           
--------------------------------------------------------------------------------
0       0.000000e+00    0.000000e+00    0.000000e+00    0.000000e+00    
1       1.000000e-12    -6.000000e-07   1.218742e-05    1.218742e-05    
2       2.000000e-12    -2.000000e-07   1.698553e-05    1.698553e-05    
3       3.000000e-12    2.000000e-07    1.812361e-05    1.812361e-05    
4       4.000000e-12    6.000000e-07    1.726067e-05    1.726067e-05    
5       5.000000e-12    1.000000e-06    1.562575e-05    1.562575e-05    
6       6.000000e-12    1.000000e-06    1.388095e-05    1.388096e-05    
7       7.000000e-12    1.000000e-06    1.233389e-05    1.233391e-05    
8       8.000000e-12    1.000000e-06    1.098532e-05    1.098537e-05    
9       9.000000e-12    1.000000e-06    9.813438e-06    9.813553e-06    
10      1.000000e-11    1.000000e-06    8.786789e-06    8.786988e-06    
11      1.100000e-11    1.000000e-06    7.886870e-06    7.887154e-06    
12      1.200000e-11    1.000000e-06    7.096798e-06    7.097119e-06    
13      1.300000e-11    1.000000e-06    6.396398e-06    6.396642e-06    
14      1.400000e-11    1.000000e-06    5.768444e-06    5.768439e-06    
15      1.500000e-11    1.000000e-06    5.203808e-06    5.203366e-06    
16      1.600000e-11    1.000000e-06    4.698885e-06    4.697862e-06    
17      1.700000e-11    1.000000e-06    4.249818e-06    4.248172e-06    
18      1.800000e-11    1.000000e-06    3.850056e-06    3.847868e-06    
19      1.900000e-11    1.000000e-06    3.492096e-06    3.489549e-06    
20      2.000000e-11    1.000000e-06    3.169936e-06    3.167257e-06    
21      2.100000e-11    1.000000e-06    2.879567e-06    2.876958e-06    
22      2.200000e-11    1.000000e-06    2.617920e-06    2.615512e-06    
23      2.300000e-11    1.000000e-06    2.381957e-06    2.379798e-06    
24      2.400000e-11    1.000000e-06    2.168665e-06    2.166737e-06    
25      2.500000e-11    1.000000e-06    1.975452e-06    1.973710e-06    
26      2.600000e-11    1.000000e-06    1.800285e-06    1.798680e-06    
27      2.700000e-11    1.000000e-06    1.641471e-06    1.639973e-06    
28      2.800000e-11    1.000000e-06    1.497422e-06    1.496019e-06    
29      2.900000e-11    1.000000e-06    1.366614e-06    1.365304e-06    
30      3.000000e-11    1.000000e-06    1.247678e-06    1.246463e-06    
31      3.100000e-11    1.000000e-06    1.139447e-06    1.138325e-06    
32      3.200000e-11    1.000000e-06    1.040921e-06    1.039889e-06    
33      3.300000e-11    1.000000e-06    9.511990e-07    9.502490e-07    
34      3.400000e-11    1.000000e-06    8.694477e-07    8.685728e-07    
35      3.500000e-11    1.000000e-06    7.949096e-07    7.941030e-07    
36      3.600000e-11    1.000000e-06    7.269127e-07    7.261686e-07    
37      3.700000e-11    1.000000e-06    6.648626e-07    6.641759e-07    
38      3.800000e-11    1.000000e-06    6.082237e-07    6.075898e-07    
39      3.900000e-11    1.000000e-06    5.565068e-07    5.559215e-07    
40      4.000000e-11    1.000000e-06    5.092664e-07    5.087259e-07    
41      4.100000e-11    1.000000e-06    4.661006e-07    4.656015e-07    
42      4.200000e-11    1.000000e-06    4.266481e-07    4.261870e-07    
43      4.300000e-11    1.000000e-06    3.905820e-07    3.901560e-07    
44      4.400000e-11    1.000000e-06    3.576047e-07    3.572111e-07    
45      4.500000e-11    1.000000e-06    3.274448e-07    3.270811e-07    
46      4.600000e-11    1.000000e-06    2.998560e-07    2.995199e-07    
47      4.700000e-11    1.000000e-06    2.746146e-07    2.743040e-07    
48      4.800000e-11    1.000000e-06    2.515177e-07    2.512305e-07    
49      4.900000e-11    1.000000e-06    2.303799e-07    2.301145e-07    
50      5.000000e-11    1.000000e-06    2.110325e-07    2.107872e-07    
51      5.100000e-11    1.000000e-06    1.933215e-07    1.930947e-07    
52      5.200000e-11    1.000000e-06    1.771065e-07    1.768968e-07    
53      5.300000e-11    1.000000e-06    1.621597e-07    1.619659e-07    
54      5.400000e-11    1.000000e-06    1.485897e-07    1.484105e-07    
55      5.500000e-11    1.000000e-06    1.362150e-07    1.360492e-07    
56      5.600000e-11    1.000000e-06    1.248123e-07    1.246590e-07    
57      5.700000e-11    1.000000e-06    1.143685e-07    1.142268e-07    
58      5.800000e-11    1.000000e-06    1.048031e-07    1.046721e-07    
59      5.900000e-11    1.000000e-06    9.604439e-08    9.592327e-08    
60      6.000000e-11    1.000000e-06    8.803095e-08    8.791898e-08    

Index   time            L2#branch       v(13)           v(14)           
--------------------------------------------------------------------------------
61      6.100000e-11    1.000000e-06    8.071716e-08    8.061363e-08    
62      6.200000e-11    1.000000e-06    7.408278e-08    7.398707e-08    
63      6.300000e-11    1.000000e-06    6.814935e-08    6.806087e-08    
64      6.400000e-11    1.000000e-06    6.300276e-08    6.292095e-08    
65      6.500000e-11    1.000000e-06    5.881832e-08    5.874270e-08    
66      6.600000e-11    1.000000e-06    5.587948e-08    5.580958e-08    
67      6.700000e-11    1.000000e-06    5.457647e-08    5.451191e-08    
68      6.800000e-11    1.000000e-06    5.537125e-08    5.531171e-08    
69      6.900000e-11    1.000000e-06    5.872096e-08    5.866625e-08    
70      7.000000e-11    1.000000e-06    6.496689e-08    6.491702e-08    
71      7.100000e-11    1.000000e-06    7.421319e-08    7.416839e-08    
72      7.200000e-11    1.000000e-06    8.623290e-08    8.619369e-08    
73      7.300000e-11    1.000000e-06    1.004397e-07    1.004070e-07    
74      7.400000e-11    1.000000e-06    1.159478e-07    1.159226e-07    
75      7.500000e-11    1.000000e-06    1.317126e-07    1.316963e-07    
76      7.600000e-11    1.000000e-06    1.467169e-07    1.467111e-07    
77      7.700000e-11    1.000000e-06    1.601473e-07    1.601535e-07    
78      7.800000e-11    1.000000e-06    1.715097e-07    1.715293e-07    
79      7.900000e-11    1.000000e-06    1.806560e-07    1.806902e-07    
80      8.000000e-11    1.000000e-06    1.877254e-07    1.877752e-07    
81      8.100000e-11    1.000000e-06    1.930324e-07    1.930986e-07    
82      8.200000e-11    1.000000e-06    1.969451e-07    1.970282e-07    
83      8.300000e-11    1.000000e-06    1.997911e-07    1.998917e-07    
84      8.400000e-11    1.000000e-06    2.018106e-07    2.019291e-07    
85      8.500000e-11    1.000000e-06    2.031535e-07    2.032902e-07    
86      8.600000e-11    1.000000e-06    2.039047e-07    2.040600e-07    
87      8.700000e-11    1.000000e-06    2.041178e-07    2.042920e-07    
88      8.800000e-11    1.000000e-06    2.038410e-07    2.040345e-07    
89      8.900000e-11    1.000000e-06    2.031296e-07    2.033426e-07    
90      9.000000e-11    1.000000e-06    2.020464e-07    2.022793e-07    
91      9.100000e-11    1.000000e-06    2.006563e-07    2.009092e-07    
92      9.200000e-11    1.000000e-06    1.990190e-07    1.992921e-07    
93      9.300000e-11    1.000000e-06    1.971857e-07    1.974792e-07    
94      9.400000e-11    1.000000e-06    1.951983e-07    1.955123e-07    
95      9.500000e-11    1.000000e-06    1.930904e-07    1.934252e-07    
96      9.600000e-11    1.000000e-06    1.908902e-07    1.912457e-07    
97      9.700000e-11    1.000000e-06    1.886215e-07    1.889979e-07    
98      9.800000e-11    1.000000e-06    1.863053e-07    1.867026e-07    
99      9.900000e-11    1.000000e-06    1.839597e-07    1.843780e-07    
100     1.000000e-10    1.000000e-06    1.816008e-07    1.820401e-07    
101     1.010000e-10    1.000000e-06    1.792419e-07    1.797023e-07    
102     1.020000e-10    1.000000e-06    1.768945e-07    1.773760e-07    
103     1.030000e-10    1.000000e-06    1.745680e-07    1.750706e-07    
104     1.040000e-10    1.000000e-06    1.722702e-07    1.727938e-07    
105     1.050000e-10    1.000000e-06    1.700075e-07    1.705522e-07    
106     1.060000e-10    1.000000e-06    1.677851e-07    1.683508e-07    
107     1.070000e-10    1.000000e-06    1.656072e-07    1.661939e-07    
108     1.080000e-10    1.000000e-06    1.634771e-07    1.640847e-07    
109     1.090000e-10    1.000000e-06    1.613973e-07    1.620258e-07    
110     1.100000e-10    1.000000e-06    1.593697e-07    1.600189e-07    
111     1.110000e-10    1.000000e-06    1.573955e-07    1.580654e-07    
112     1.120000e-10    1.000000e-06    1.554756e-07    1.561661e-07    
113     1.130000e-10    1.000000e-06    1.536105e-07    1.543215e-07    
114     1.140000e-10    1.000000e-06    1.518001e-07    1.525315e-07    
115     1.150000e-10    1.000000e-06    1.500443e-07    1.507960e-07    
116     1.160000e-10    1.000000e-06    1.483426e-07    1.491145e-07    
117     1.170000e-10    1.000000e-06    1.466943e-07    1.474863e-07    
118     1.180000e-10    1.000000e-06    1.450988e-07    1.459107e-07    
119     1.190000e-10    1.000000e-06    1.435549e-07    1.443866e-07    
120     1.200000e-10    1.000000e-06    1.420617e-07    1.429131e-07    
121     1.210000e-10    1.000000e-06    1.406180e-07    1.414890e-07    
122     1.220000e-10    1.000000e-06    1.392227e-07    1.401131e-07    
123     1.230000e-10    1.000000e-06    1.378745e-07    1.387841e-07    
124     1.240000e-10    1.000000e-06    1.365721e-07    1.375008e-07    

Index   time            L2#branch       v(13)           v(14)           
--------------------------------------------------------------------------------
125     1.250000e-10    1.000000e-06    1.353142e-07    1.362619e-07    
126     1.260000e-10    1.000000e-06    1.340996e-07    1.350661e-07    
127     1.270000e-10    1.000000e-06    1.329270e-07    1.339121e-07    
128     1.280000e-10    1.000000e-06    1.317950e-07    1.327986e-07    
129     1.290000e-10    1.000000e-06    1.307023e-07    1.317244e-07    
130     1.300000e-10    1.000000e-06    1.296479e-07    1.306880e-07    
131     1.310000e-10    1.000000e-06    1.286303e-07    1.296885e-07    
132     1.320000e-10    1.000000e-06    1.276483e-07    1.287244e-07    
133     1.330000e-10    1.000000e-06    1.267009e-07    1.277947e-07    
134     1.340000e-10    1.000000e-06    1.257869e-07    1.268981e-07    
135     1.350000e-10    1.000000e-06    1.249050e-07    1.260336e-07    
136     1.360000e-10    1.000000e-06    1.240543e-07    1.252001e-07    
137     1.370000e-10    1.000000e-06    1.232337e-07    1.243964e-07    
138     1.380000e-10    1.000000e-06    1.224421e-07    1.236217e-07    
139     1.390000e-10    1.000000e-06    1.216787e-07    1.228749e-07    
140     1.400000e-10    1.000000e-06    1.209423e-07    1.221550e-07    
141     1.410000e-10    1.000000e-06    1.202322e-07    1.214611e-07    
142     1.420000e-10    1.000000e-06    1.195474e-07    1.207923e-07    
143     1.430000e-10    1.000000e-06    1.188870e-07    1.201479e-07    
144     1.440000e-10    1.000000e-06    1.182503e-07    1.195269e-07    
145     1.450000e-10    1.000000e-06    1.176364e-07    1.189285e-07    
146     1.460000e-10    1.000000e-06    1.170446e-07    1.183521e-07    
147     1.470000e-10    1.000000e-06    1.164742e-07    1.177968e-07    
148     1.480000e-10    1.000000e-06    1.159244e-07    1.172620e-07    
149     1.490000e-10    1.000000e-06    1.153946e-07    1.167469e-07    
150     1.500000e-10    1.000000e-06    1.148841e-07    1.162510e-07    
151     1.510000e-10    1.000000e-06    1.143924e-07    1.157737e-07    
152     1.520000e-10    1.000000e-06    1.139187e-07    1.153142e-07    
153     1.530000e-10    1.000000e-06    1.134626e-07    1.148721e-07    
154     1.540000e-10    1.000000e-06    1.130235e-07    1.144467e-07    
155     1.550000e-10    1.000000e-06    1.126008e-07    1.140376e-07    
156     1.560000e-10    1.000000e-06    1.121941e-07    1.136443e-07    
157     1.570000e-10    1.000000e-06    1.118029e-07    1.132663e-07    
158     1.580000e-10    1.000000e-06    1.114266e-07    1.129030e-07    
159     1.590000e-10    1.000000e-06    1.110650e-07    1.125541e-07    
160     1.600000e-10    1.000000e-06    1.107174e-07    1.122191e-07    
161     1.610000e-10    1.000000e-06    1.103836e-07    1.118977e-07    
162     1.620000e-10    1.000000e-06    1.100632e-07    1.115894e-07    
163     1.630000e-10    1.000000e-06    1.097556e-07    1.112938e-07    
164     1.640000e-10    1.000000e-06    1.094607e-07    1.110106e-07    
165     1.650000e-10    1.000000e-06    1.091780e-07    1.107394e-07    
166     1.660000e-10    1.000000e-06    1.089073e-07    1.104800e-07    
167     1.670000e-10    1.000000e-06    1.086481e-07    1.102319e-07    
168     1.680000e-10    1.000000e-06    1.084002e-07    1.099949e-07    
169     1.690000e-10    1.000000e-06    1.081634e-07    1.097687e-07    
170     1.700000e-10    1.000000e-06    1.079372e-07    1.095530e-07    
171     1.710000e-10    1.000000e-06    1.077215e-07    1.093476e-07    
172     1.720000e-10    1.000000e-06    1.075160e-07    1.091521e-07    
173     1.730000e-10    1.000000e-06    1.073205e-07    1.089664e-07    
174     1.740000e-10    1.000000e-06    1.071347e-07    1.087901e-07    
175     1.750000e-10    1.000000e-06    1.069583e-07    1.086231e-07    
176     1.760000e-10    1.000000e-06    1.067913e-07    1.084652e-07    
177     1.770000e-10    1.000000e-06    1.066332e-07    1.083161e-07    
178     1.780000e-10    1.000000e-06    1.064841e-07    1.081757e-07    
179     1.790000e-10    1.000000e-06    1.063436e-07    1.080436e-07    
180     1.800000e-10    1.000000e-06    1.062116e-07    1.079199e-07    
181     1.810000e-10    1.000000e-06    1.060879e-07    1.078042e-07    
182     1.820000e-10    1.000000e-06    1.059723e-07    1.076964e-07    
183     1.830000e-10    1.000000e-06    1.058647e-07    1.075964e-07    
184     1.840000e-10    1.000000e-06    1.057650e-07    1.075039e-07    
185     1.850000e-10    1.000000e-06    1.056728e-07    1.074189e-07    
186     1.860000e-10    1.000000e-06    1.055882e-07    1.073412e-07    
187     1.870000e-10    1.000000e-06    1.055110e-07    1.072706e-07    
188     1.880000e-10    1.000000e-06    1.054411e-07    1.072071e-07    

Index   time            L2#branch       v(13)           v(14)           
--------------------------------------------------------------------------------
189     1.890000e-10    1.000000e-06    1.053782e-07    1.071504e-07    
190     1.900000e-10    1.000000e-06    1.053224e-07    1.071005e-07    
191     1.910000e-10    1.000000e-06    1.052734e-07    1.070572e-07    
192     1.920000e-10    1.000000e-06    1.052312e-07    1.070205e-07    
193     1.930000e-10    1.000000e-06    1.051957e-07    1.069902e-07    
194     1.940000e-10    1.000000e-06    1.051667e-07    1.069662e-07    
195     1.950000e-10    1.000000e-06    1.051442e-07    1.069484e-07    
196     1.960000e-10    1.000000e-06    1.051280e-07    1.069367e-07    
197     1.970000e-10    1.000000e-06    1.051181e-07    1.069310e-07    
198     1.980000e-10    1.000000e-06    1.051144e-07    1.069313e-07    
199     1.990000e-10    1.000000e-06    1.051167e-07    1.069374e-07    
200     2.000000e-10    1.000000e-06    1.051251e-07    1.069493e-07    
201     2.010000e-10    1.000000e-06    1.051394e-07    1.069669e-07    
202     2.020000e-10    1.000000e-06    1.051596e-07    1.069901e-07    
203     2.030000e-10    1.000000e-06    1.051855e-07    1.070188e-07    
204     2.040000e-10    1.000000e-06    1.052172e-07    1.070529e-07    
205     2.050000e-10    1.000000e-06    1.052544e-07    1.070925e-07    
206     2.060000e-10    1.000000e-06    1.052973e-07    1.071374e-07    
207     2.070000e-10    1.000000e-06    1.053457e-07    1.071875e-07    
208     2.080000e-10    1.000000e-06    1.053996e-07    1.072428e-07    
209     2.090000e-10    1.000000e-06    1.054588e-07    1.073033e-07    
210     2.100000e-10    1.000000e-06    1.055234e-07    1.073689e-07    
211     2.110000e-10    1.000000e-06    1.055933e-07    1.074395e-07    
212     2.120000e-10    1.000000e-06    1.056684e-07    1.075151e-07    
213     2.130000e-10    1.000000e-06    1.057487e-07    1.075955e-07    
214     2.140000e-10    1.000000e-06    1.058342e-07    1.076809e-07    
215     2.150000e-10    1.000000e-06    1.059248e-07    1.077711e-07    
216     2.160000e-10    1.000000e-06    1.060204e-07    1.078661e-07    
217     2.170000e-10    1.000000e-06    1.061210e-07    1.079659e-07    
218     2.180000e-10    1.000000e-06    1.062266e-07    1.080703e-07    
219     2.190000e-10    1.000000e-06    1.063372e-07    1.081794e-07    
220     2.200000e-10    1.000000e-06    1.064527e-07    1.082932e-07    
221     2.210000e-10    1.000000e-06    1.065730e-07    1.084115e-07    
222     2.220000e-10    1.000000e-06    1.066981e-07    1.085344e-07    
223     2.230000e-10    1.000000e-06    1.068281e-07    1.086618e-07    
224     2.240000e-10    1.000000e-06    1.069628e-07    1.087937e-07    
225     2.250000e-10    1.000000e-06    1.071023e-07    1.089300e-07    
226     2.260000e-10    1.000000e-06    1.072465e-07    1.090708e-07    
227     2.270000e-10    1.000000e-06    1.073954e-07    1.092160e-07    
228     2.280000e-10    1.000000e-06    1.075489e-07    1.093655e-07    
229     2.290000e-10    1.000000e-06    1.077070e-07    1.095194e-07    
230     2.300000e-10    1.000000e-06    1.078698e-07    1.096776e-07    
231     2.310000e-10    1.000000e-06    1.080372e-07    1.098401e-07    
232     2.320000e-10    1.000000e-06    1.082091e-07    1.100069e-07    
233     2.330000e-10    1.000000e-06    1.083856e-07    1.101779e-07    
234     2.340000e-10    1.000000e-06    1.085666e-07    1.103531e-07    
235     2.350000e-10    1.000000e-06    1.087521e-07    1.105326e-07    
236     2.360000e-10    1.000000e-06    1.089422e-07    1.107162e-07    
237     2.370000e-10    1.000000e-06    1.091366e-07    1.109041e-07    
238     2.380000e-10    1.000000e-06    1.093356e-07    1.110960e-07    
239     2.390000e-10    1.000000e-06    1.095390e-07    1.112922e-07    
240     2.400000e-10    1.000000e-06    1.097468e-07    1.114924e-07    
241     2.410000e-10    1.000000e-06    1.099591e-07    1.116968e-07    
242     2.420000e-10    1.000000e-06    1.101758e-07    1.119052e-07    
243     2.430000e-10    1.000000e-06    1.103968e-07    1.121177e-07    
244     2.440000e-10    1.000000e-06    1.106223e-07    1.123343e-07    
245     2.450000e-10    1.000000e-06    1.108521e-07    1.125550e-07    
246     2.460000e-10    1.000000e-06    1.110863e-07    1.127797e-07    
247     2.470000e-10    1.000000e-06    1.113249e-07    1.130084e-07    
248     2.480000e-10    1.000000e-06    1.115678e-07    1.132412e-07    
249     2.490000e-10    1.000000e-06    1.118150e-07    1.134780e-07    
250     2.500000e-10    1.000000e-06    1.120666e-07    1.137188e-07    
251     2.510000e-10    1.000000e-06    1.123226e-07    1.139636e-07    
252     2.520000e-10    1.000000e-06    1.125828e-07    1.142124e-07    

Index   time            L2#branch       v(13)           v(14)           
--------------------------------------------------------------------------------
253     2.530000e-10    1.000000e-06    1.128474e-07    1.144652e-07    
254     2.540000e-10    1.000000e-06    1.131164e-07    1.147220e-07    
255     2.550000e-10    1.000000e-06    1.133896e-07    1.149828e-07    
256     2.560000e-10    1.000000e-06    1.136671e-07    1.152475e-07    
257     2.570000e-10    1.000000e-06    1.139490e-07    1.155163e-07    
258     2.580000e-10    1.000000e-06    1.142352e-07    1.157890e-07    
259     2.590000e-10    1.000000e-06    1.145257e-07    1.160656e-07    
260     2.600000e-10    1.000000e-06    1.148205e-07    1.163463e-07    
