<Qucs Dataset 0.0.19>
<indep acfrequency 2>
  +1.00000000000000000000e+000
  +1.00000000000000000000e+012
</indep>
<indep M 11>
  +0.00000000000000000000e+000
  +2.00000000000000020211e-011
  +4.00000000000000040422e-011
  +5.99999999999999996010e-011
  +8.00000000000000080845e-011
  +1.00000000000000016568e-010
  +1.19999999999999999202e-010
  +1.40000000000000007685e-010
  +1.60000000000000016169e-010
  +1.80000000000000024652e-010
  +2.00000000000000033136e-010
</indep>
<dep C acfrequency M>
  -2.53302959105844428800e+019
  +1.99997466970408899201e+000
  -2.55167029116277227520e+019
  +1.99997414404993478776e+000
  -2.59182762489715097600e+019
  +1.99997360102907739687e+000
  -2.64554444464525680640e+019
  +1.99997304381013174535e+000
  -2.71416412506572103680e+019
  +1.99997245753589192319e+000
  -2.80980347894144737280e+019
  +1.99997184524482740642e+000
  -2.99424849590024683520e+019
  +1.99997120512318371510e+000
  -5.80830153547075174400e+019
  +1.99997053522135237458e+000
  -2.49076032427635466240e+019
  +1.99996983340912404259e+000
  -2.73159735562750607360e+019
  +1.99996909734977590389e+000
  -2.85225983875653672960e+019
  +1.99996832447331973626e+000
</dep>
<dep L acfrequency M>
  +1.00000000000000000000e+000
  -1.26653083632965450143e-005
  +9.92694706612807120649e-001
  -1.26653116921255567024e-005
  +9.77314064687832217970e-001
  -1.26653151309351558532e-005
  +9.57470057320507494936e-001
  -1.26653186596594910881e-005
  +9.33263234771076866103e-001
  -1.26653223723856506525e-005
  +9.01497065557313237427e-001
  -1.26653262498720936091e-005
  +8.45965054178600239787e-001
  -1.26653303036051881163e-005
  +4.36105043030130368198e-001
  -1.26653345459316726601e-005
  +1.01697042721056307713e+000
  -1.26653389903420377036e-005
  +9.27307088594158446249e-001
  -1.26653436516346400143e-005
  +8.88078132517806317914e-001
  -1.26653485460851143355e-005
</dep>
<dep Z acfrequency M>
  -0.00000000000000000000e+000+j6.28318530717958634327e-009
  +0.00000000000000000000e+000-j7.95784794191635724836e-002
  -2.94297711358400505246e-022+j6.23728479510454048296e-009
  -1.21608438171373537210e-029-j7.95785003348131181333e-002
  -4.34470062050815858716e-022+j6.14064537174654651246e-009
  -1.99578813053721277186e-029-j7.95785219414910649505e-002
  -5.05846047506383890197e-022+j6.01596179622060860802e-009
  -1.20165771619297308459e-029-j7.95785441131199589027e-002
  -5.35696321168221938072e-022+j5.86386584444452333716e-009
  -1.24019097495385806294e-029-j7.95785674408664156498e-002
  -5.27161214752038960752e-022+j5.66427311677522249107e-009
  -1.27141676778786254982e-029-j7.95785918038322687140e-002
  -4.42168813065253944732e-022+j5.31535519880236391981e-009
  -1.30199585939937772060e-029-j7.95786172741884817450e-002
  +4.62330105983478693053e-022+j2.74012879875383644018e-009
  -1.33322414581807825449e-029-j7.95786439295119163440e-002
  -1.07772582785654908741e-021+j6.38981364608555614956e-009
  -1.36557339443014546412e-029-j7.95786718545658244839e-002
  -8.58047761366623896899e-022+j5.82644227429829471900e-009
  -1.39930063535100527590e-029-j7.95787011423310097769e-002
  -7.94781329634279478053e-022+j5.57995947386336622999e-009
  -1.43459382160409667444e-029-j7.95787318950703231879e-002
</dep>
<dep L2k M>
  +1.00000000000000006228e-009
  +9.80000000000000131346e-010
  +9.59999999999999993616e-010
  +9.40000000000000062681e-010
  +9.20000000000000028348e-010
  +8.99999999999999994015e-010
  +8.80000000000000063080e-010
  +8.60000000000000028747e-010
  +8.39999999999999994414e-010
  +8.20000000000000063479e-010
  +8.00000000000000029146e-010
</dep>
<dep L1k M>
  +4.10000000000000005890e-011
  +2.09999999999999985679e-011
  +9.99999999999996546764e-013
  -1.89999999999999990120e-011
  -3.90000000000000074955e-011
  -5.90000000000000159789e-011
  -7.89999999999999986130e-011
  -9.90000000000000070965e-011
  -1.19000000000000002655e-010
  -1.39000000000000036988e-010
  -1.59000000000000019622e-010
</dep>
<dep k M>
  +0.00000000000000000000e+000
  +1.00000000000000005551e-001
  +2.00000000000000011102e-001
  +2.99999999999999988898e-001
  +4.00000000000000022204e-001
  +5.00000000000000111022e-001
  +5.99999999999999977796e-001
  +7.00000000000000066613e-001
  +8.00000000000000044409e-001
  +9.00000000000000133227e-001
  +1.00000000000000022204e+000
</dep>
<dep Pr2.v acfrequency M>
  +1.00000000000000000000e+000
  +1.00000000000000000000e+000
  +1.00000000000000000000e+000
  +1.00000000000000000000e+000
  +1.00000000000000000000e+000
  +1.00000000000000000000e+000
  +1.00000000000000000000e+000
  +1.00000000000000000000e+000
  +1.00000000000000000000e+000
  +1.00000000000000000000e+000
  +1.00000000000000000000e+000
  +1.00000000000000000000e+000
  +1.00000000000000000000e+000
  +1.00000000000000000000e+000
  +1.00000000000000000000e+000
  +1.00000000000000000000e+000
  +1.00000000000000000000e+000
  +1.00000000000000000000e+000
  +1.00000000000000000000e+000
  +1.00000000000000000000e+000
  +1.00000000000000000000e+000
  +1.00000000000000000000e+000
</dep>
<dep V1.i acfrequency M>
  -0.00000000000000000000e+000+j1.59154943091895341873e+008
  +0.00000000000000000000e+000-j1.25662114594160811976e+001
  +7.56477013353642930177e-006+j1.60326172822005867958e+008
  +1.92031383003591040101e-027-j1.25662081566336212290e+001
  +1.15221048146254500491e-005+j1.62849332514959424734e+008
  +3.15153909165060217852e-027-j1.25662047447329481287e+001
  +1.39768151556754882111e-005+j1.66224459840856581926e+008
  +1.89753065426385785671e-027-j1.25662012436230536849e+001
  +1.55793958518158152905e-005+j1.70535961518868744373e+008
  +1.95837714908878480272e-027-j1.25661975599533661807e+001
  +1.64306626362402613886e-005+j1.76545159349469870329e+008
  +2.00768435726129496936e-027-j1.25661937128151475207e+001
  +1.56503309080556710239e-005+j1.88134181554850041866e+008
  +2.05597024757195051506e-027-j1.25661896908122372452e+001
  -6.15758223252801142585e-005+j3.64946348673384547234e+008
  +2.10528115053882214677e-027-j1.25661854816948928004e+001
  +2.63956223371791967949e-005+j1.56499086731990516186e+008
  +2.15636201782597060691e-027-j1.25661810720786117912e+001
  +2.52757799954332877006e-005+j1.71631323700093567371e+008
  +2.20961870880047159127e-027-j1.25661764472813324289e+001
  +2.55261646932165933179e-005+j1.79212771111334860325e+008
  +2.26534800148092207832e-027-j1.25661715911553386604e+001
</dep>
<dep Pr1.i acfrequency M>
  +0.00000000000000000000e+000-j1.59154943091895341873e+008
  +0.00000000000000000000e+000+j1.25662114594160811976e+001
  -7.56477013353642930177e-006-j1.60326172822005867958e+008
  -1.92031383003591040101e-027+j1.25662081566336212290e+001
  -1.15221048146254500491e-005-j1.62849332514959424734e+008
  -3.15153909165060217852e-027+j1.25662047447329481287e+001
  -1.39768151556754882111e-005-j1.66224459840856581926e+008
  -1.89753065426385785671e-027+j1.25662012436230536849e+001
  -1.55793958518158152905e-005-j1.70535961518868744373e+008
  -1.95837714908878480272e-027+j1.25661975599533661807e+001
  -1.64306626362402613886e-005-j1.76545159349469870329e+008
  -2.00768435726129496936e-027+j1.25661937128151475207e+001
  -1.56503309080556710239e-005-j1.88134181554850041866e+008
  -2.05597024757195051506e-027+j1.25661896908122372452e+001
  +6.15758223252801142585e-005-j3.64946348673384547234e+008
  -2.10528115053882214677e-027+j1.25661854816948928004e+001
  -2.63956223371791967949e-005-j1.56499086731990516186e+008
  -2.15636201782597060691e-027+j1.25661810720786117912e+001
  -2.52757799954332877006e-005-j1.71631323700093567371e+008
  -2.20961870880047159127e-027+j1.25661764472813324289e+001
  -2.55261646932165933179e-005-j1.79212771111334860325e+008
  -2.26534800148092207832e-027+j1.25661715911553386604e+001
</dep>
<dep _net2.v acfrequency M>
  +1.00000000000000000000e+000
  +1.00000000000000000000e+000
  +1.00000000000000000000e+000
  +1.00000000000000000000e+000
  +1.00000000000000000000e+000
  +1.00000000000000000000e+000
  +1.00000000000000000000e+000
  +1.00000000000000000000e+000
  +1.00000000000000000000e+000
  +1.00000000000000000000e+000
  +1.00000000000000000000e+000
  +1.00000000000000000000e+000
  +1.00000000000000000000e+000
  +1.00000000000000000000e+000
  +1.00000000000000000000e+000
  +1.00000000000000000000e+000
  +1.00000000000000000000e+000
  +1.00000000000000000000e+000
  +1.00000000000000000000e+000
  +1.00000000000000000000e+000
  +1.00000000000000000000e+000
  +1.00000000000000000000e+000
</dep>
<dep _net4.v acfrequency M>
  +0.00000000000000000000e+000
  +0.00000000000000000000e+000
  +1.27881276370688246047e-002+j4.65802355041225119361e-014
  -3.36954334634327612452e-004+j1.18243738892142849949e-023
  +1.77159679916840673286e-002+j6.94996988918762798816e-014
  -5.02014472773461175974e-004+j1.90096359510347153171e-023
  +1.82460612600225946522e-002+j8.25497844496668846300e-014
  -3.36457410694725590587e-004+j1.12071845231859273174e-023
  +1.42116760597885902206e-002+j9.00571726219946232755e-014
  -3.46267917262886994016e-004+j1.13204588067452254073e-023
  +1.66064384955899591034e-003+j9.29132082569244696357e-014
  -3.54664012541200206457e-004+j1.13531875694986127619e-023
  -4.02320942848477525189e-002+j8.65338577083146771248e-014
  -3.63031207117761026051e-004+j1.13678770053573605335e-023
  -9.72001960868365211255e-001-j3.32727379816062657362e-013
  -3.71639024376568631852e-004+j1.13759695695909880448e-023
  +1.74017279633168042707e-001+j1.39312812611973539205e-013
  -3.80588738090100278146e-004+j1.13810106037859807343e-023
  +1.15719042714146569395e-001+j1.30226175785744341415e-013
  -3.89939110097210816022e-004+j1.13844239205954875345e-023
  +9.91783597554579676725e-002+j1.28308498359251866573e-013
  -3.99736101484604881753e-004+j1.13868810228428565916e-023
</dep>
<dep _net24.v acfrequency M>
  +1.29976897615028927549e-024+j3.75769932814474787558e-014
  +6.79376359126688274268e-025-j3.71924311272627542656e-024
  +9.49540852693315541588e-003+j5.85461501101162222464e-014
  +4.07249436671767658590e-007-j3.73572703178123925303e-024
  +1.74281792807615028285e-002+j6.98819453620371334456e-014
  +1.30572545747938884882e-005-j4.30805540841038710088e-024
  +2.65878323409035575986e-002+j7.77701605117769224517e-014
  -4.48313270760504216167e-007-j3.69705781838943353708e-024
  +3.99205173124091358683e-002+j8.47944531649722571061e-014
  -2.24931150043061149051e-007-j3.70717539752201803962e-024
  +6.45097505489601596995e-002+j9.35499762364124317170e-014
  -1.52322026629628647614e-007-j3.71047113985477478353e-024
  +1.32118922982811165534e-001+j1.12966049217389588423e-013
  -1.16455951870918179482e-007-j3.71210447399512309581e-024
  +1.53126392604748562398e+000+j7.52660496535927165849e-013
  -9.51391097794751089471e-008-j3.71307973288207155020e-024
  -1.80323594410531362620e-001+j4.62167811166600542031e-014
  -8.10588847601241648701e-008-j3.71372789339905403776e-024
  -8.93387030587325936537e-002+j6.48525627599172093760e-014
  -7.11028416394784195802e-008-j3.71418986371843962639e-024
  -6.10125118480000991350e-002+j7.16886096107391796560e-014
  -6.37222601462640048354e-008-j3.71453578604705854995e-024
</dep>
<dep _net14.v acfrequency M>
  +3.54919299094897341927e-022+j1.02609004848280841484e-011
  +9.57852525642092188229e-003-j5.24375975281397149752e-002
  +8.61317358913029376645e-005+j1.02581115398691675315e-011
  +9.57852525642092188229e-003-j5.24375975281397149752e-002
  +1.58088968012170605956e-004+j1.02557254843664041486e-011
  +9.57852525642092188229e-003-j5.24375975281397149752e-002
  +2.41175105485281798985e-004+j1.02529232259132705468e-011
  +9.57852525642092188229e-003-j5.24375975281397149752e-002
  +3.62114325470434372366e-004+j1.02488038556534090245e-011
  +9.57852525642092188229e-003-j5.24375975281397149752e-002
  +5.85160373135779911767e-004+j1.02411684835653292274e-011
  +9.57852525642092188229e-003-j5.24375975281397149752e-002
  +1.19843523828608777490e-003+j1.02201324452710554855e-011
  +9.57852525642092188229e-003-j5.24375975281397149752e-002
  +1.38899152873836247840e-002+j9.78695781842115318103e-012
  +9.57852525642092188229e-003-j5.24375975281397149752e-002
  -1.63569415309345700220e-003+j1.03175547999345042389e-011
  +9.57852525642092188229e-003-j5.24375975281397149752e-002
  -8.10380886183062021204e-004+j1.02891776274923745803e-011
  +9.57852525642092188229e-003-j5.24375975281397149752e-002
  -5.53437331490385319398e-004+j1.02803523855812569046e-011
  +9.57852525642092188229e-003-j5.24375975281397149752e-002
</dep>
<dep _net13.v acfrequency M>
  +3.79473319220205551616e-001
  +3.79473319220205551616e-001
  +3.79473319220205551616e-001
  +3.79473319220205551616e-001
  +3.79473319220205551616e-001
  +3.79473319220205551616e-001
  +3.79473319220205551616e-001
  +3.79473319220205551616e-001
  +3.79473319220205551616e-001
  +3.79473319220205551616e-001
  +3.79473319220205551616e-001
  +3.79473319220205551616e-001
  +3.79473319220205551616e-001
  +3.79473319220205551616e-001
  +3.79473319220205551616e-001
  +3.79473319220205551616e-001
  +3.79473319220205551616e-001
  +3.79473319220205551616e-001
  +3.79473319220205551616e-001
  +3.79473319220205551616e-001
  +3.79473319220205551616e-001
  +3.79473319220205551616e-001
</dep>
<dep _net1.v acfrequency M>
  +1.00000000000000000000e+000
  +1.00000000000000000000e+000
  +1.00000000000000000000e+000
  +1.00000000000000000000e+000
  +1.00000000000000000000e+000
  +1.00000000000000000000e+000
  +1.00000000000000000000e+000
  +1.00000000000000000000e+000
  +1.00000000000000000000e+000
  +1.00000000000000000000e+000
  +1.00000000000000000000e+000
  +1.00000000000000000000e+000
  +1.00000000000000000000e+000
  +1.00000000000000000000e+000
  +1.00000000000000000000e+000
  +1.00000000000000000000e+000
  +1.00000000000000000000e+000
  +1.00000000000000000000e+000
  +1.00000000000000000000e+000
  +1.00000000000000000000e+000
  +1.00000000000000000000e+000
  +1.00000000000000000000e+000
</dep>
<dep _net0.v acfrequency M>
  +9.98070031889566085839e-022+j1.72068421978176106504e-011
  +2.96099539979388148847e-001+j1.27428741259236495004e-002
  +1.94530021675703274596e-004+j1.71962671968849733118e-011
  +2.96099539979388148847e-001+j1.27428741259236495004e-002
  +2.69491182386907509629e-004+j1.71922677762811595238e-011
  +2.96099539979388148847e-001+j1.27428741259236495004e-002
  +2.77554837826279876545e-004+j1.71919985648338131856e-011
  +2.96099539979388148847e-001+j1.27428741259236495004e-002
  +2.16184709006581867938e-004+j1.71956724939675937379e-011
  +2.96099539979388148847e-001+j1.27428741259236495004e-002
  +2.52613277892165064703e-005+j1.72067903074660221503e-011
  +2.96099539979388148847e-001+j1.27428741259236495004e-002
  -6.12001255805752486516e-004+j1.72436572065339332369e-011
  +2.96099539979388148847e-001+j1.27428741259236495004e-002
  -1.47858676330735443888e-002+j1.80594240365519226929e-011
  +2.96099539979388148847e-001+j1.27428741259236495004e-002
  +2.64711036202530669570e-003+j1.70554177321738764757e-011
  +2.96099539979388148847e-001+j1.27428741259236495004e-002
  +1.76029114866062437461e-003+j1.71067187945778332546e-011
  +2.96099539979388148847e-001+j1.27428741259236495004e-002
  +1.50867812869375970096e-003+j1.71212842486376799341e-011
  +2.96099539979388148847e-001+j1.27428741259236495004e-002
</dep>
<dep _net3.v acfrequency M>
  +6.12987881346147782549e-024+j1.05679816109985895813e-013
  -3.39453744097776159267e-020-j1.46086560381436963294e-021
  +7.62613172866757026147e-003+j1.33388390525572279510e-013
  +2.64884515273298826770e-006-j1.46095855687133074492e-021
  +1.05648230483573989102e-002+j1.47029585650074622822e-013
  +3.94640598480766426124e-006-j1.46101504122136650725e-021
  +1.08809413424156616740e-002+j1.54809061938243781408e-013
  +2.64493876414142981444e-006-j1.46095370505940103776e-021
  +8.47505724004026655960e-003+j1.59307915743557047767e-013
  +2.72206052842183608614e-006-j1.46095459552438729549e-021
  +9.90316104949456876838e-004+j1.61079113168772116234e-013
  +2.78806340772588178852e-006-j1.46095485280976879849e-021
  -2.39921949048318844389e-002+j1.57501844105209186494e-013
  +2.85383909457125070513e-006-j1.46095496828547874949e-021
  -5.79648186542841115099e-001-j8.74729678179489276523e-014
  +2.92150634997649214341e-006-j1.46095503190225801395e-021
  +1.03774276830028600038e-001+j1.87815245046919066682e-013
  +2.99186130123172218029e-006-j1.46095507153053297283e-021
  +6.90084340959601638676e-002+j1.82712403944971645500e-013
  +3.06536588337091268371e-006-j1.46095509836309376233e-021
  +5.91444860102810152092e-002+j1.81658443516665915797e-013
  +3.14238140292500429731e-006-j1.46095511767871819351e-021
</dep>
<dep _net5.v acfrequency M>
  +1.39352578359357624209e-023+j2.40245448623368007753e-013
  +4.31839055557010939687e-018+j1.85845298104948157982e-019
  +4.54861182610212001765e-003+j2.56656038957345194203e-013
  -2.08229422224720838780e-008+j1.85845298835665141885e-019
  +6.30139640491508834508e-003+j2.64747559152626812962e-013
  -3.10232494069669942423e-008+j1.85845299279696523914e-019
  +6.48994539173568078805e-003+j2.69382816356607394064e-013
  -2.07922335553861693557e-008+j1.85845298797524362304e-019
  +5.05495406590293974713e-003+j2.72102822501691787686e-013
  -2.13984985310424894713e-008+j1.85845298804524443577e-019
  +5.90674762359438072952e-004+j2.73273309013417511291e-013
  -2.19173563967549950442e-008+j1.85845298806547007056e-019
  -1.43101621321367628720e-002+j2.71520334557527650403e-013
  -2.24344282707735319424e-008+j1.85845298807454770061e-019
  -3.45731583205693970839e-001+j1.33872166309925365559e-013
  -2.29663700298057667197e-008+j1.85845298807954861845e-019
  +6.18962430270970087598e-002+j2.87653844461355877748e-013
  -2.35194401418297791488e-008+j1.85845298808266381014e-019
  +4.11601307973362487425e-002+j2.85140022515824602866e-013
  -2.40972699427562402507e-008+j1.85845298808477318491e-019
  +3.52767717745808492835e-002+j2.84661696568635344284e-013
  -2.47026997137590656933e-008+j1.85845298808629178067e-019
</dep>
<dep _net6.v acfrequency M>
  +2.55496073335658271523e-023+j4.40478170427137429502e-013
  -5.49333893828613226854e-016-j2.36410116093014167614e-017
  +2.71437915600458408785e-003+j4.50076338037459232648e-013
  +1.63691511915092261856e-010-j2.36410116093071637363e-017
  +3.76035144548290392250e-003+j4.54829865490230361597e-013
  +2.43877553360022727870e-010-j2.36410116093106519806e-017
  +3.87286784813012114476e-003+j4.57587873912443748620e-013
  +1.63450106788057203789e-010-j2.36410116093068617505e-017
  +3.01653833644575193260e-003+j4.59272500743622395660e-013
  +1.68216040557040514386e-010-j2.36410116093069172173e-017
  +3.52484521480999192598e-004+j4.60162209321730450311e-013
  +1.72294854809545927427e-010-j2.36410116093069326247e-017
  -8.53957367555902707723e-003+j4.59754383122237023597e-013
  +1.76359629131547034935e-010-j2.36410116093069418692e-017
  -2.06314945944769956299e-001+j3.91809025895845959856e-013
  +1.80541297699419668606e-010-j2.36410116093069449507e-017
  +3.69365156515719453290e-002+j4.66117828028563478834e-013
  +1.84889059205281206240e-010-j2.36410116093069480322e-017
  +2.45622632499842494247e-002+j4.65505913907669718987e-013
  +1.89431460088622788172e-010-j2.36410116093069480322e-017
  +2.10513751572661313161e-002+j4.65472480016031766539e-013
  +1.94190828197008950662e-010-j2.36410116093069511136e-017
</dep>
<dep _net7.v acfrequency M>
  +4.41475161690372174430e-023+j7.61108258814324399497e-013
  +6.98796743539975161495e-014+j3.00732616577355049497e-015
  +1.62207678854830159888e-003+j7.66517502847812121959e-013
  -1.21692651394093363428e-012+j3.00732616577355049497e-015
  +2.24713588114938082191e-003+j7.69232335061830296579e-013
  -1.84728020097320211842e-012+j3.00732616577355049497e-015
  +2.31437418301346170893e-003+j7.70866950337681523040e-013
  -1.21502879447314390372e-012+j3.00732616577355049497e-015
  +1.80264308561706989784e-003+j7.71976662522143136558e-013
  -1.25249446641922011124e-012+j3.00732616577355049497e-015
