<Qucs Dataset 0.0.19>
<indep frequency 101>
  +1.00000000000000000000e+006
  +2.00099000000000000000e+009
  +4.00098000000000000000e+009
  +6.00097000000000000000e+009
  +8.00096000000000000000e+009
  +1.00009500000000000000e+010
  +1.20009400000000000000e+010
  +1.40009300000000000000e+010
  +1.60009200000000000000e+010
  +1.80009100000000000000e+010
  +2.00009000000000000000e+010
  +2.20008900000000000000e+010
  +2.40008800000000000000e+010
  +2.60008700000000000000e+010
  +2.80008600000000000000e+010
  +3.00008500000000000000e+010
  +3.20008400000000000000e+010
  +3.40008300000000000000e+010
  +3.60008200000000000000e+010
  +3.80008100000000000000e+010
  +4.00008000000000000000e+010
  +4.20007900000000000000e+010
  +4.40007800000000000000e+010
  +4.60007700000000000000e+010
  +4.80007600000000000000e+010
  +5.00007500000000000000e+010
  +5.20007400000000000000e+010
  +5.40007300000000000000e+010
  +5.60007200000000000000e+010
  +5.80007100000000000000e+010
  +6.00007000000000000000e+010
  +6.20006900000000000000e+010
  +6.40006800000000000000e+010
  +6.60006700000000000000e+010
  +6.80006600000000000000e+010
  +7.00006500000000000000e+010
  +7.20006400000000000000e+010
  +7.40006300000000000000e+010
  +7.60006200000000000000e+010
  +7.80006100000000000000e+010
  +8.00006000000000000000e+010
  +8.20005900000000000000e+010
  +8.40005800000000000000e+010
  +8.60005700000000000000e+010
  +8.80005600000000000000e+010
  +9.00005500000000000000e+010
  +9.20005400000000000000e+010
  +9.40005300000000000000e+010
  +9.60005200000000000000e+010
  +9.80005100000000000000e+010
  +1.00000500000000000000e+011
  +1.02000490000000000000e+011
  +1.04000480000000000000e+011
  +1.06000470000000000000e+011
  +1.08000460000000000000e+011
  +1.10000450000000000000e+011
  +1.12000440000000000000e+011
  +1.14000430000000000000e+011
  +1.16000420000000000000e+011
  +1.18000410000000000000e+011
  +1.20000400000000000000e+011
  +1.22000390000000000000e+011
  +1.24000380000000000000e+011
  +1.26000370000000000000e+011
  +1.28000360000000000000e+011
  +1.30000350000000000000e+011
  +1.32000340000000000000e+011
  +1.34000330000000000000e+011
  +1.36000320000000000000e+011
  +1.38000310000000000000e+011
  +1.40000300000000000000e+011
  +1.42000290000000000000e+011
  +1.44000280000000000000e+011
  +1.46000270000000000000e+011
  +1.48000260000000000000e+011
  +1.50000250000000000000e+011
  +1.52000240000000000000e+011
  +1.54000230000000000000e+011
  +1.56000220000000000000e+011
  +1.58000210000000000000e+011
  +1.60000200000000000000e+011
  +1.62000190000000000000e+011
  +1.64000180000000000000e+011
  +1.66000170000000000000e+011
  +1.68000160000000000000e+011
  +1.70000150000000000000e+011
  +1.72000140000000000000e+011
  +1.74000130000000000000e+011
  +1.76000120000000000000e+011
  +1.78000110000000000000e+011
  +1.80000100000000000000e+011
  +1.82000090000000000000e+011
  +1.84000080000000000000e+011
  +1.86000070000000000000e+011
  +1.88000060000000000000e+011
  +1.90000050000000000000e+011
  +1.92000040000000000000e+011
  +1.94000030000000000000e+011
  +1.96000020000000000000e+011
  +1.98000010000000000000e+011
  +2.00000000000000000000e+011
</indep>
<dep S[1,1] frequency>
  -9.99999993268602782592e-001+j1.16024515606749108578e-004
  -9.73368902021663595647e-001+j2.29234761269337894429e-001
  -8.97200528522732576597e-001+j4.41603829236012990211e-001
  -7.81303193949610896851e-001+j6.24121468218529762417e-001
  -6.38700567711759426004e-001+j7.69413369921764234149e-001
  -4.82466018620936687444e-001+j8.75859206257752043179e-001
  -3.23504187711119606252e-001+j9.46155439789877150680e-001
  -1.69634712310220592268e-001+j9.85416642562467970379e-001
  -2.56811485342907826201e-002+j9.99556258292233046348e-001
  +1.05930580780267208363e-001+j9.94229795652137648965e-001
  +2.24455596436875765010e-001+j9.74302002813711043316e-001
  +3.30203986826736628490e-001+j9.43676166773544933264e-001
  +4.24073696467552663236e-001+j9.05324892827930050032e-001
  +5.07236218337982713855e-001+j8.61407729055628901271e-001
  +5.80941579891175230443e-001+j8.13407733809553112891e-001
  +6.46406179029143101999e-001+j7.62251909528131932348e-001
  +7.04753151838368840920e-001+j7.08398764230267929953e-001
  +7.56982167632666902435e-001+j6.51883335413633635547e-001
  +8.03949998165640722370e-001+j5.92308066987461412367e-001
  +8.46341657659504198463e-001+j5.28755847097072240182e-001
  +8.84596767050997878634e-001+j4.59571504088286009182e-001
  +9.18701395769862871887e-001+j3.81886642002443044142e-001
  +9.47563791269440458542e-001+j2.90584930013454700859e-001
  +9.66931569362741272222e-001+j1.75957335122989083631e-001
  +9.61235532353552191154e-001+j1.84911286230089039195e-002
  +8.65314189941095102121e-001-j2.15082350723482446098e-001
  +4.23769280372848333727e-001-j4.20959923416182324463e-001
  +2.30330570562626846254e-002+j1.84237193066592558344e-001
  +4.35784994093330380061e-001+j4.77838213079049778376e-001
  +6.78412694215544842535e-001+j3.88812134016628008215e-001
  +7.81018111375061496737e-001+j2.52127770341038559554e-001
  +8.11903498314848204309e-001+j1.06837329528337354745e-001
  +7.82315599751150392294e-001-j4.78087956636721878034e-002
  +6.69874469776681524813e-001-j2.03950052964624595209e-001
  +4.33039889348562745397e-001-j3.03423025268277024580e-001
  +1.13067338179884901983e-001-j1.90855698175946830730e-001
  -8.90227125677112152147e-003+j1.66122257774228621052e-001
  +1.66640142766284027331e-001+j4.39484986140940114829e-001
  +3.98638469727572553047e-001+j5.02334783835488019044e-001
  +5.69944416825136412896e-001+j4.50219996256873922214e-001
  +6.77378367610747544880e-001+j3.51218445141085244821e-001
  +7.33177404493247086847e-001+j2.29422078798926093457e-001
  +7.39238282567646121102e-001+j9.10776339671273138521e-002
  +6.81445982132002026077e-001-j5.82548660207149460177e-002
  +5.28235522624776576706e-001-j1.91262296123096697809e-001
  +2.62170078822558161313e-001-j2.17587542520155330372e-001
  +5.71667997991454068796e-003-j1.17893308588800337089e-002
  -6.08373038748999395153e-003+j3.22078731234232695790e-001
  +1.83992414612851012956e-001+j5.24443917473142118268e-001
  +3.91891028693067411393e-001+j5.63544487511922320699e-001
  +5.49851910997552595362e-001+j5.13478062862706474689e-001
  +6.56347295807104824661e-001+j4.20320437043554040457e-001
  +7.17765841217465450086e-001+j3.00134182879115751774e-001
  +7.30132446725744843619e-001+j1.55273480593462909205e-001
  +6.69120900099024695784e-001-j1.08227990943438046045e-002
  +4.82778531216866868547e-001-j1.59149331236926594446e-001
  +1.56155724934192718933e-001-j1.40893893763329169921e-001
  -6.38381351749607306445e-002+j1.78689786718486509631e-001
  +4.94948916002055094854e-002+j5.10913898932675358822e-001
  +2.82273652956302079087e-001+j6.32518209251567875562e-001
  +4.75066814323999331293e-001+j6.17178755681746515904e-001
  +6.10480403168369711864e-001+j5.40712066247164724331e-001
  +6.99490155464493890136e-001+j4.29662292240375665031e-001
  +7.43186217023224293676e-001+j2.84553891221072052797e-001
  +7.14671872674650487944e-001+j9.61342559232961635374e-002
  +5.25198634667693231570e-001-j1.10081548038705290260e-001
  +9.92480904589269075089e-002-j8.91261150380198985399e-002
  -8.50106274144192819442e-002+j3.71887115536861934117e-001
  +1.57489785727191411446e-001+j6.67997817557581474723e-001
  +4.04815552847039183959e-001+j7.03540555106991316592e-001
  +5.72352471495836123694e-001+j6.41564082605010854721e-001
  +6.84302863603430955308e-001+j5.37937328020258731520e-001
  +7.53225846449227409707e-001+j3.91664222553541829797e-001
  +7.46949012561994418746e-001+j1.69865377926366301065e-001
  +4.70520005886915448912e-001-j1.15422622314603207094e-001
  -1.10563474968271235888e-001+j1.99968536529672946678e-001
  +1.21068443083523491488e-001+j7.17469765595720510021e-001
  +4.23000688175336536645e-001+j7.62154456230371035730e-001
  +5.97980900815513582991e-001+j6.89040387084286387598e-001
  +7.11420443628360099630e-001+j5.74864926391092989633e-001
  +7.82633980457374422990e-001+j3.85530790961588709642e-001
  +6.21197334505272813487e-001-j1.96616297542268059217e-002
  -1.27297118804225228850e-001+j4.83672121978532931763e-001
  +3.63971045456063846402e-001+j8.19352583471727569098e-001
  +5.88784839350710464956e-001+j7.46869126387234572029e-001
  +7.14473130483895713105e-001+j6.31622296932554672111e-001
  +8.03347524755136821462e-001+j3.47077056294361585564e-001
  -6.73524327361080255017e-003+j7.27846286188919333604e-001
  +5.60123274763032918955e-001+j7.98834215845844131110e-001
  +7.05769592728720751573e-001+j6.83663865986359087223e-001
  +3.74173705574380011107e-001+j8.75152397454833197443e-001
  +6.79717306454260761228e-001+j7.32863908733140112517e-001
  +7.25866018629204190482e-001+j6.87773483102886773466e-001
  +7.52447108991457058735e-001+j6.58641651193086818949e-001
  +7.71720364522978430344e-001+j6.35959456527787736491e-001
  +7.87010099563617560037e-001+j6.16939408824303869849e-001
  +7.99730768050519902346e-001+j6.00358588486281208318e-001
  +8.10631893050135721168e-001+j5.85556014210017350408e-001
  +8.20165387632656672778e-001+j5.72126476505879333345e-001
  +8.28627814794558825717e-001+j5.59799903836771473031e-001
  +8.36225783656704413360e-001+j5.48385296854393966548e-001
</dep>
<dep S[1,2] frequency>
  +9.74620682305425878354e-011+j1.05244475656016873592e-006
  +3.85726080315023538755e-004+j2.06301195380922605671e-003
  +1.49064372638779371084e-003+j3.87912411515104653750e-003
  +3.17756164338717445386e-003+j5.25501045593653685201e-003
  +5.26540496381841180429e-003+j6.07671793650554729893e-003
  +7.57450321192536593640e-003+j6.31019735794750239594e-003
  +9.95827936678466557607e-003+j5.97971248878220468931e-003
  +1.23162738109744707149e-002+j5.13948827740281187493e-003
  +1.45927847205227934763e-002+j3.84912365237497465509e-003
  +1.67682509289011280607e-002+j2.15667657540985924919e-003
  +1.88489968774254029737e-002+j8.86457626987594167738e-005
  +2.08583200136127737412e-002-j2.35580846580451565286e-003
  +2.28298572901067843566e-002-j5.20922322009394374309e-003
  +2.48030354601009341009e-002-j8.54122715840921822861e-003
  +2.68198943545052033433e-002-j1.24672610931023525316e-002
  +2.89222729914916827643e-002-j1.71633405450586640217e-002
  +3.11478770364956962513e-002-j2.28909494568216159704e-002
  +3.35225816953547486876e-002-j3.00391646458910213657e-002
  +3.60433680147154641982e-002-j3.91973194644852501733e-002
  +3.86386308033653536054e-002-j5.12845871628113472718e-002
  +4.10715823741879607067e-002-j6.77917212809480140834e-002
  +4.26896340191320264323e-002-j9.12575104740297876615e-002
  +4.17122759904979753531e-002-j1.26266963042015012419e-001
  +3.29384558929629867041e-002-j1.81651904778094647197e-001
  -9.53961864705526389578e-004-j2.75106196695005522646e-001
  -1.28713068440085010025e-001-j4.34055159059976380931e-001
  -6.01734365721070307842e-001-j5.30215138410792263812e-001
  -9.60542222032521375574e-001+j2.07086394208807450523e-001
  -5.04160853406022901879e-001+j5.72349469238334407351e-001
  -2.37094080688419139857e-001+j5.76513432342348752790e-001
  -9.17742560524521105991e-002+j5.63932427736698715925e-001
  +2.32098522531653979339e-002+j5.73462986775739480549e-001
  +1.55055811960565587126e-001+j6.01377017037100336516e-001
  +3.46340723651250848025e-001+j6.24276119820276198524e-001
  +6.32858013592552337556e-001+j5.65598494165003295997e-001
  +9.35586481034304418003e-001+j2.74714062283922477725e-001
  +9.63512786414755906250e-001-j2.09683703357546241675e-001
  +7.03483156761698258386e-001-j5.33099857370196938966e-001
  +4.30752446129680888198e-001-j6.34979893819882179606e-001
  +2.33841579468467813951e-001-j6.46361688539784373653e-001
  +9.00224431134741959193e-002-j6.40078206644751124266e-001
  -3.33789007659390166149e-002-j6.39298249867605083985e-001
  -1.64639675888568509654e-001-j6.46626169668913175492e-001
  -3.32559856073260329268e-001-j6.49339422913463804043e-001
  -5.64654856278294703387e-001-j6.04608021779720394839e-001
  -8.42972617334685425661e-001-j4.16316799485820621118e-001
  -9.99769586857809255953e-001-j1.70030715483677312416e-002
  -8.60332497303763155116e-001+j3.95039584338332694369e-001
  -5.78415375499669592863e-001+j5.97110561098971981409e-001
  -3.39055787416642384624e-001+j6.43335219962414495143e-001
  -1.68807235079515560727e-001+j6.36794529119018348773e-001
  -3.99798626052448591306e-002+j6.25252403495001218836e-001
  +7.71231429492074266330e-002+j6.23525212217205138110e-001
  +2.11015914484036615217e-001+j6.31085604571309355393e-001
  +3.95490781288245829561e-001+j6.29084358402312138203e-001
  +6.61572580126551845758e-001+j5.51287675708080904258e-001
  +9.43052073985082395247e-001+j2.57715125716182991145e-001
  +9.53943553197123095266e-001-j2.32349628649431677596e-001
  +6.61644880143322455801e-001-j5.46574145165162561533e-001
  +3.74284569122540544672e-001-j6.16565780049981748689e-001
  +1.84130426709127326124e-001-j5.99581430185341046624e-001
  +5.59963455297175366487e-002-j5.76028252822228803431e-001
  -5.02124457277174640613e-002-j5.68843165845423381910e-001
  -1.69624382775329013429e-001-j5.81318242089254311189e-001
  -3.48061445014459791558e-001-j5.99045532276332615140e-001
  -6.48733844538523007905e-001-j5.39622873750604803433e-001
  -9.78617642959133005043e-001-j1.56569029656530328554e-001
  -8.25982141136332836950e-001+j4.15002010896480366675e-001
  -4.33898622708727033093e-001+j5.83701865973869860049e-001
  -1.94302185290264495254e-001+j5.50819132097207453391e-001
  -6.28995311360545511503e-002+j5.06805510296269634551e-001
  +3.04125369477710391641e-002+j4.91353334763251214934e-001
  +1.34579885442535240880e-001+j5.11016844582102280903e-001
  +3.20642047555651177326e-001+j5.57136970011774090850e-001
  +7.33773646499115472785e-001+j4.76303241666036603075e-001
  +9.41344892290636781063e-001-j2.48310483386122354821e-001
  +4.05426960408012126980e-001-j5.53361136437742984207e-001
  +1.37613594636946501293e-001-j4.70375914798453809151e-001
  +2.80237679987342565291e-002-j4.08481157036356012924e-001
  -4.67042026352128200606e-002-j4.01534539297936809987e-001
  -1.65495463153748245677e-001-j4.59849229127865188893e-001
  -5.84625515935963235847e-001-j5.21478952629460090762e-001
  -7.33256641864352132210e-001+j4.60642398316391143975e-001
  -1.42336539363569103411e-001+j4.19436206817937917712e-001
  -2.17365489197539445143e-002+j3.08296032153159482725e-001
  +3.48281837672263783201e-002+j2.98945509164566303184e-001
  +2.05703696991900802926e-001+j4.38013995789769350342e-001
  +4.55399050454342591010e-001-j5.12646198683319398448e-001
  +2.16463062083833111815e-002-j2.18305405545111852472e-001
  -1.80928963817585837515e-002-j1.84839518027512583753e-001
  -8.86591190014976993083e-002+j2.93669678216398166715e-001
  +1.70285752064575166692e-003+j2.98659481552786612579e-002
  +1.18292189361877985755e-003+j9.20649964448639820946e-003
  +6.57551298230920678624e-004+j3.75381277274035784694e-003
  +3.74415340315531843841e-004+j1.76307871523119735584e-003
  +2.21264387049726674907e-004+j9.05575206372904919355e-004
  +1.35241703435907994384e-004+j4.95554000907375783586e-004
  +8.50887510190095506732e-005+j2.84521239025204233670e-004
  +5.48767889152024942686e-005+j1.69702327651540619885e-004
  +3.61571680197544134379e-005+j1.04430817349399873944e-004
  +2.42722616643901954194e-005+j6.59735337726079820427e-005
</dep>
<dep S[2,1] frequency>
  +9.74620682305425878354e-011+j1.05244475656016873592e-006
  +3.85726080315023538755e-004+j2.06301195380922605671e-003
  +1.49064372638779371084e-003+j3.87912411515104653750e-003
  +3.17756164338717445386e-003+j5.25501045593653685201e-003
  +5.26540496381841180429e-003+j6.07671793650554729893e-003
  +7.57450321192536593640e-003+j6.31019735794750239594e-003
  +9.95827936678466557607e-003+j5.97971248878220468931e-003
  +1.23162738109744707149e-002+j5.13948827740281187493e-003
  +1.45927847205227934763e-002+j3.84912365237497465509e-003
  +1.67682509289011280607e-002+j2.15667657540985924919e-003
  +1.88489968774254029737e-002+j8.86457626987594167738e-005
  +2.08583200136127737412e-002-j2.35580846580451565286e-003
  +2.28298572901067843566e-002-j5.20922322009394374309e-003
  +2.48030354601009341009e-002-j8.54122715840921822861e-003
  +2.68198943545052033433e-002-j1.24672610931023525316e-002
  +2.89222729914916827643e-002-j1.71633405450586640217e-002
  +3.11478770364956962513e-002-j2.28909494568216159704e-002
  +3.35225816953547486876e-002-j3.00391646458910213657e-002
  +3.60433680147154641982e-002-j3.91973194644852501733e-002
  +3.86386308033653536054e-002-j5.12845871628113472718e-002
  +4.10715823741879607067e-002-j6.77917212809480140834e-002
  +4.26896340191320264323e-002-j9.12575104740297876615e-002
  +4.17122759904979753531e-002-j1.26266963042015012419e-001
  +3.29384558929629867041e-002-j1.81651904778094647197e-001
  -9.53961864705526389578e-004-j2.75106196695005522646e-001
  -1.28713068440085010025e-001-j4.34055159059976380931e-001
  -6.01734365721070307842e-001-j5.30215138410792263812e-001
  -9.60542222032521375574e-001+j2.07086394208807450523e-001
  -5.04160853406022901879e-001+j5.72349469238334407351e-001
  -2.37094080688419139857e-001+j5.76513432342348752790e-001
  -9.17742560524521105991e-002+j5.63932427736698715925e-001
  +2.32098522531653979339e-002+j5.73462986775739480549e-001
  +1.55055811960565587126e-001+j6.01377017037100336516e-001
  +3.46340723651250848025e-001+j6.24276119820276198524e-001
  +6.32858013592552337556e-001+j5.65598494165003295997e-001
  +9.35586481034304418003e-001+j2.74714062283922477725e-001
  +9.63512786414755906250e-001-j2.09683703357546241675e-001
  +7.03483156761698258386e-001-j5.33099857370196938966e-001
  +4.30752446129680888198e-001-j6.34979893819882179606e-001
  +2.33841579468467813951e-001-j6.46361688539784373653e-001
  +9.00224431134741959193e-002-j6.40078206644751124266e-001
  -3.33789007659390166149e-002-j6.39298249867605083985e-001
  -1.64639675888568509654e-001-j6.46626169668913175492e-001
  -3.32559856073260329268e-001-j6.49339422913463804043e-001
  -5.64654856278294703387e-001-j6.04608021779720394839e-001
  -8.42972617334685425661e-001-j4.16316799485820621118e-001
  -9.99769586857809255953e-001-j1.70030715483677312416e-002
  -8.60332497303763155116e-001+j3.95039584338332694369e-001
  -5.78415375499669592863e-001+j5.97110561098971981409e-001
  -3.39055787416642384624e-001+j6.43335219962414495143e-001
  -1.68807235079515560727e-001+j6.36794529119018348773e-001
  -3.99798626052448591306e-002+j6.25252403495001218836e-001
  +7.71231429492074266330e-002+j6.23525212217205138110e-001
  +2.11015914484036615217e-001+j6.31085604571309355393e-001
  +3.95490781288245829561e-001+j6.29084358402312138203e-001
  +6.61572580126551845758e-001+j5.51287675708080904258e-001
  +9.43052073985082395247e-001+j2.57715125716182991145e-001
  +9.53943553197123095266e-001-j2.32349628649431677596e-001
  +6.61644880143322455801e-001-j5.46574145165162561533e-001
  +3.74284569122540544672e-001-j6.16565780049981748689e-001
  +1.84130426709127326124e-001-j5.99581430185341046624e-001
  +5.59963455297175366487e-002-j5.76028252822228803431e-001
  -5.02124457277174640613e-002-j5.68843165845423381910e-001
  -1.69624382775329013429e-001-j5.81318242089254311189e-001
  -3.48061445014459791558e-001-j5.99045532276332615140e-001
  -6.48733844538523007905e-001-j5.39622873750604803433e-001
  -9.78617642959133005043e-001-j1.56569029656530328554e-001
  -8.25982141136332836950e-001+j4.15002010896480366675e-001
  -4.33898622708727033093e-001+j5.83701865973869860049e-001
  -1.94302185290264495254e-001+j5.50819132097207453391e-001
  -6.28995311360545511503e-002+j5.06805510296269634551e-001
  +3.04125369477710391641e-002+j4.91353334763251214934e-001
  +1.34579885442535240880e-001+j5.11016844582102280903e-001
  +3.20642047555651177326e-001+j5.57136970011774090850e-001
  +7.33773646499115472785e-001+j4.76303241666036603075e-001
  +9.41344892290636781063e-001-j2.48310483386122354821e-001
