<Qucs Dataset 0.0.19>
<indep L1k 1>
  -5.90000000000000030542e-011
</indep>
<indep L2k 1>
  +9.00000000000000097412e-010
</indep>
<indep M 1>
  +1.00000000000000003643e-010
</indep>
<indep frequency 101>
  +1.00000000000000000000e+009
  +2.99000000000000000000e+009
  +4.98000000000000000000e+009
  +6.97000000000000000000e+009
  +8.96000000000000000000e+009
  +1.09500000000000000000e+010
  +1.29400000000000000000e+010
  +1.49300000000000000000e+010
  +1.69200000000000000000e+010
  +1.89100000000000000000e+010
  +2.09000000000000000000e+010
  +2.28900000000000000000e+010
  +2.48800000000000000000e+010
  +2.68700000000000000000e+010
  +2.88600000000000000000e+010
  +3.08500000000000000000e+010
  +3.28400000000000000000e+010
  +3.48300000000000000000e+010
  +3.68200000000000000000e+010
  +3.88100000000000000000e+010
  +4.08000000000000000000e+010
  +4.27900000000000000000e+010
  +4.47800000000000000000e+010
  +4.67700000000000000000e+010
  +4.87600000000000000000e+010
  +5.07500000000000000000e+010
  +5.27400000000000000000e+010
  +5.47300000000000000000e+010
  +5.67200000000000000000e+010
  +5.87100000000000000000e+010
  +6.07000000000000000000e+010
  +6.26900000000000000000e+010
  +6.46800000000000000000e+010
  +6.66700000000000000000e+010
  +6.86600000000000000000e+010
  +7.06500000000000000000e+010
  +7.26400000000000000000e+010
  +7.46300000000000000000e+010
  +7.66200000000000000000e+010
  +7.86100000000000000000e+010
  +8.06000000000000000000e+010
  +8.25900000000000000000e+010
  +8.45800000000000000000e+010
  +8.65700000000000000000e+010
  +8.85600000000000000000e+010
  +9.05500000000000000000e+010
  +9.25400000000000000000e+010
  +9.45300000000000000000e+010
  +9.65200000000000000000e+010
  +9.85100000000000000000e+010
  +1.00500000000000000000e+011
  +1.02490000000000000000e+011
  +1.04480000000000000000e+011
  +1.06470000000000000000e+011
  +1.08460000000000000000e+011
  +1.10450000000000000000e+011
  +1.12440000000000000000e+011
  +1.14430000000000000000e+011
  +1.16420000000000000000e+011
  +1.18410000000000000000e+011
  +1.20400000000000000000e+011
  +1.22390000000000000000e+011
  +1.24380000000000000000e+011
  +1.26370000000000000000e+011
  +1.28360000000000000000e+011
  +1.30350000000000000000e+011
  +1.32340000000000000000e+011
  +1.34330000000000000000e+011
  +1.36320000000000000000e+011
  +1.38310000000000000000e+011
  +1.40300000000000000000e+011
  +1.42290000000000000000e+011
  +1.44280000000000000000e+011
  +1.46270000000000000000e+011
  +1.48260000000000000000e+011
  +1.50250000000000000000e+011
  +1.52240000000000000000e+011
  +1.54230000000000000000e+011
  +1.56220000000000000000e+011
  +1.58210000000000000000e+011
  +1.60200000000000000000e+011
  +1.62190000000000000000e+011
  +1.64180000000000000000e+011
  +1.66170000000000000000e+011
  +1.68160000000000000000e+011
  +1.70150000000000000000e+011
  +1.72140000000000000000e+011
  +1.74130000000000000000e+011
  +1.76120000000000000000e+011
  +1.78110000000000000000e+011
  +1.80100000000000000000e+011
  +1.82090000000000000000e+011
  +1.84080000000000000000e+011
  +1.86070000000000000000e+011
  +1.88060000000000000000e+011
  +1.90050000000000000000e+011
  +1.92040000000000000000e+011
  +1.94030000000000000000e+011
  +1.96020000000000000000e+011
  +1.98010000000000000000e+011
  +2.00000000000000000000e+011
</indep>
<dep S[2,2] frequency>
  -9.97608834600785754354e-001+j6.91113782074110616360e-002
  -9.78724834720578140690e-001+j2.05172547680715133822e-001
  -9.41541072248293198221e-001+j3.36895639545353675626e-001
  -8.87091987652827040911e-001+j4.61591683582288581089e-001
  -8.16852541526784658998e-001+j5.76846075420506254616e-001
  -7.32655009674242463369e-001+j6.80599954404361828786e-001
  -6.36591125092604515068e-001+j7.71201338040376382921e-001
  -5.30910028373856812678e-001+j8.47428088649291866297e-001
  -4.17919518241033904893e-001+j9.08483976135493920268e-001
  -2.99897373788494014946e-001+j9.53971406084935247272e-001
  -1.79017461421859175319e-001+j9.83845839493474483284e-001
  -5.72931585588099742679e-002+j9.98357341253809482673e-001
  +6.34613141960342214132e-002+j9.97984237031644738636e-001
  +1.81652538447647476927e-001+j9.83362702692682555394e-001
  +2.95914307611866878034e-001+j9.55214384868476096280e-001
  +4.05100863983282655223e-001+j9.14271834920781678591e-001
  +5.08268622405947279042e-001+j8.61198291915418301379e-001
  +6.04646748963800884091e-001+j7.96493143673493664281e-001
  +6.93594137554048528749e-001+j7.20364470237299103772e-001
  +7.74534153887687093487e-001+j6.32527350345953309763e-001
  +8.46844202115273780862e-001+j5.31820902196975753284e-001
  +9.09642930633911994676e-001+j4.15243645201635924735e-001
  +9.60947476108723885879e-001+j2.71844647871837374886e-001
  +9.88645576322191854679e-001+j1.27960864409469993186e-001
  +9.93297740603969803175e-001-j1.03088307333296824719e-001
  +8.83272973859758669946e-001-j4.62979778253176210701e-001
  +2.97278350774196065132e-002-j9.83692207273158092384e-001
  -2.07236441474416999142e-001+j9.43288101592342553836e-001
  +7.66421470030128615392e-001+j6.01052185967636987129e-001
  +9.34387490668383557946e-001+j2.66422507986606660335e-001
  +9.92304757818317839657e-001+j1.23952241093042148101e-002
  +9.70931358541320843614e-001-j2.26318934872005744774e-001
  +8.82134006478814458596e-001-j4.66426674787953965406e-001
  +6.82852007214339140617e-001-j7.27269417562201869742e-001
  +2.26502044293664384078e-001-j9.69751115723969880911e-001
  -7.13757438079639761064e-001-j6.85913349522907278555e-001
  -5.93108452945628417119e-001+j7.85213592239448754384e-001
  +4.97267819849369019369e-001+j8.51354642301195285725e-001
  +8.83143477797830867004e-001+j4.40068569806451315163e-001
  +9.87321359889286709333e-001+j1.12327170554979649530e-001
  +9.86238228654305548737e-001-j1.51269956123072923937e-001
  +9.25388362386575624718e-001-j3.76100341876176247347e-001
  +8.11344261056716753444e-001-j5.83215815805888881940e-001
  +6.19794024158579981432e-001-j7.83747301981714716845e-001
  +2.78286068495685989799e-001-j9.59307909924382196110e-001
  -3.64691144971367675609e-001-j9.28598946407654057822e-001
  -9.92995540023961176246e-001+j5.39540362809894091800e-002
  +9.96202025629233656190e-003+j9.92858050299854966170e-001
  +7.86732713603804700853e-001+j6.06617533654741469817e-001
  +9.81417068906296652386e-001+j1.72543165461191250198e-001
  +9.88982912401881963937e-001-j1.40334089997430744301e-001
  +9.25990176355423355581e-001-j3.76339604123025028848e-001
  +8.20412710949695478391e-001-j5.71292807889907994223e-001
  +6.65680603768093237527e-001-j7.45922178693646187320e-001
  +4.24138171333799052221e-001-j9.05279841604765378449e-001
  -5.59955454373761707387e-003-j9.99457049287361232182e-001
  -7.67141367010012564798e-001-j6.39165389525633620416e-001
  -5.55369430478638848037e-001+j8.27311567704989481165e-001
  +7.02372952880837231326e-001+j7.06607273652710698997e-001
  +9.88193692676586077361e-001+j1.41727830014698907846e-001
  +9.76075669338466456182e-001-j2.15569290396272483790e-001
  +8.91313468013176346538e-001-j4.53069837391788854397e-001
  +7.73586945432729877759e-001-j6.33560291002639774938e-001
  +6.15667172328359102451e-001-j7.87915211629758749368e-001
  +3.74953841019020517322e-001-j9.26938647018193950800e-001
  -7.97205952573363241243e-002-j9.96590132673436990274e-001
  -9.32858686241779810899e-001-j3.57448259265580325916e-001
  +2.53556692192500487959e-001+j9.64822522408850913322e-001
  +9.81451026702777618027e-001+j1.85516567565370382731e-001
  +9.62800014889221955627e-001-j2.69600641765424642315e-001
  +8.55903015215111251379e-001-j5.17049220198212644561e-001
  +7.28036596094783217126e-001-j6.85503864470941248754e-001
  +5.65899440643555018404e-001-j8.24447842593978852399e-001
  +3.04917777213503105038e-001-j9.52338819857663221313e-001
  -3.19555502886721076727e-001-j9.47390308726037244647e-001
  -3.90048741810507748617e-001+j9.19137992177343821076e-001
  +9.96775813620169426343e-001+j7.30897212981224120298e-002
  +9.06930601339642650238e-001-j4.21193376656623263976e-001
  +7.71063991561477202197e-001-j6.36743647534555146095e-001
  +6.28183211283029341310e-001-j7.78058325664300554081e-001
  +4.22997173322092190340e-001-j9.06121412591678998538e-001
  -1.51109712759282588390e-001-j9.88455019106480592406e-001
  +6.93838686667499482397e-001+j7.18360360783350193614e-001
  +8.98832989048814923194e-001-j4.38251247667866827840e-001
  +7.31727501079867059808e-001-j6.81594504534045464439e-001
  +5.82682992365992302730e-001-j8.12698102359661889160e-001
  +2.76646120193981770452e-001-j9.60965610028241989937e-001
  +9.99420067383090637847e-001+j2.47595948814831046114e-002
  +7.23512614244394280938e-001-j6.90310625958901358246e-001
  +5.66567186238930875497e-001-j8.24015376200370464055e-001
  +8.10051312005461099375e-001-j5.86357440865103107797e-001
  +5.88670239331879119327e-001-j8.08373273429379701760e-001
  +5.26442428469367729171e-001-j8.50210779457765797318e-001
  +4.82377846044209634968e-001-j8.75963249026876611403e-001
  +4.45627440403788488421e-001-j8.95218512073543526419e-001
  +4.13060132968420590238e-001-j9.10703753452301811855e-001
  +3.83312247194559474472e-001-j9.23618818101199279269e-001
  +3.55651903158883675449e-001-j9.34618491032285336750e-001
  +3.29633620230984802912e-001-j9.44108932493181285395e-001
  +3.04962482639875409607e-001-j9.52364365241648025417e-001
  +2.81431147376582146968e-001-j9.59581424000227389826e-001
</dep>
<dep S[2,1] frequency>
  +8.51356250109916207037e-007+j9.11544413054927778076e-006
  +7.42881301367501623717e-006+j2.60193005458890820191e-005
  +1.94400646770734471767e-005+j3.95389649334961496940e-005
  +3.52985934120244476166e-005+j4.85263601016322314308e-005
  +5.34129904886043870731e-005+j5.25126007955485526969e-005
  +7.24672970830701084800e-005+j5.17107847525444120208e-005
  +9.17040155164920370171e-005+j4.66853368902866476477e-005
  +1.10946386172967252203e-004+j3.80137096121895080359e-005
  +1.30518200446909084190e-004+j2.60434732417763747264e-005
  +1.51156633692585900619e-004+j1.07281037522295076970e-005
  +1.73975515014614329559e-004-j8.51205733021031765067e-006
  +2.00511811139266816258e-004-j3.29754954743364473574e-005
  +2.32884845796725993387e-004-j6.50062312948677603489e-005
  +2.74119836459830079796e-004-j1.08613302953431179495e-004
  +3.28744694444793128605e-004-j1.70678143872580686570e-004
  +4.03894793749920519993e-004-j2.63395825344875649399e-004
  +5.11448041617174726202e-004-j4.09495305093819574483e-004
  +6.72430540141312656222e-004-j6.54300278078978267415e-004
  +9.26932114126282854540e-004-j1.09665423775785492860e-003
  +1.35916373680980808250e-003-j1.98055092003793405120e-003
  +2.17178549935124727902e-003-j4.03234482198606535713e-003
  +3.95714067513984989188e-003-j1.02694581815387583901e-002
  +6.87564295592568014426e-003-j5.11789489839141881200e-002
  -2.70269354329357447408e-002+j7.39053111819460289977e-002
  -4.07792821101723816646e-003+j5.20933394541335179073e-002
  +1.47536870374823762819e-002+j7.25252239732193937360e-002
  +1.31722039202870816466e-001+j1.18804267269090227388e-001
  +1.63277629288186842960e-001-j2.01492480219920361284e-001
  -5.56717658257815106726e-002-j2.19616995661377073512e-001
  -2.35378032511159435147e-001-j2.30451900061936117148e-002
  -8.01058710561001890982e-002+j9.35909915912000317517e-002
  -2.27240800706378053009e-002+j7.45332525731529083046e-002
  -1.08253239706343267965e-003+j6.54551336853330667509e-002
  +1.77497951461034544907e-002+j6.69115517271353515971e-002
  +5.33098632561934127061e-002+j7.37398886060257746644e-002
  +1.35060624304055354461e-001+j4.27986832079515211458e-002
  +1.35555541028411524751e-001-j1.15266917502193075307e-001
  -3.87826155380976977938e-003-j1.67046722171508565946e-001
  -1.31155930522316360731e-001-j9.58900434025051068287e-002
  -1.05520566248916938812e-001+j3.80036887284391500241e-002
  -3.99656409363296771797e-002+j5.34247948729749608243e-002
  -1.37933327265234960401e-002+j4.48844609732331201180e-002
  -1.45556629490952815602e-003+j3.97197947648557161959e-002
  +8.46732547691202500073e-003+j3.90362047885282753557e-002
  +2.33686718686018229940e-002+j4.17024407080684098026e-002
  +5.59828255518763848175e-002+j3.96267514427369460517e-002
  +1.03697076875047727862e-001-j1.71963841231823448552e-002
  +4.48403228626394548262e-002-j1.10104265698486594727e-001
  -6.32292625348284953457e-002-j9.52302151806866253869e-002
  -8.37527481868588774550e-002+j5.90060081086239088949e-003
  -3.38085889002661746372e-002+j3.28039990724167604408e-002
  -1.20648060596814151596e-002+j2.76609551137993112113e-002
  -3.32975840844344957159e-003+j2.31607471637932590958e-002
  +1.93195575790398995850e-003+j2.15801369750822022442e-002
  +7.91953596651571480047e-003+j2.26384478008399836479e-002
  +2.00966831809616698623e-002+j2.55024232337004511106e-002
  +5.15695288266687784651e-002+j1.73870488020736214951e-002
  +6.16759968331845667699e-002-j5.75884437909838162173e-002
  -3.30800756594570380398e-002-j7.92722354423478353658e-002
  -5.80250338369430948560e-002+j4.41937096394466079341e-003
  -1.92837429062057107154e-002+j2.08399185830354417848e-002
  -6.10759196573534141050e-003+j1.58341424312584862222e-002
  -1.47631525431995958529e-003+j1.27442258892070010845e-002
  +1.22779283356352908463e-003+j1.19182329599578432089e-002
  +4.67331326765571628684e-003+j1.31347471778001483045e-002
  +1.35654060951897106196e-002+j1.63924865280426663994e-002
  +4.43899738074130245646e-002+j5.91125389152897737222e-003
  +1.20473438274500879025e-002-j6.84204719568469732494e-002
  -4.82203069049604790552e-002-j3.50463009319418100293e-003
  -1.17887775221990152158e-002+j1.38798030326989889349e-002
  -2.96011194498876830522e-003+j9.02052257767136517197e-003
  -5.30210270155201954592e-004+j6.84728055591647937622e-003
  +8.54978524767168466050e-004+j6.54574861225655415392e-003
  +3.21400523589389234061e-003+j8.09885266235210905805e-003
  +1.37148449180873686221e-002+j1.21567445793544504085e-002
  +3.54568967871253387658e-002-j4.23100160803727143310e-002
  -3.27324592517643925271e-002+j4.94513613061532079224e-003
  -4.01385446639908067407e-003+j7.54404132465028715027e-003
  -7.14762953023545901700e-004+j4.16380658871114139874e-003
  +1.25664397885041938989e-004+j3.32852781705815373506e-003
  +1.05880159325676581790e-003+j4.03186228616083525145e-003
  +7.23282969350875701298e-003+j8.37950192454962015931e-003
  -1.78349706636313568020e-002-j4.72036139634686505162e-002
  -2.74591425698836148761e-003+j5.24991095954078536290e-003
  -2.33023208997121890384e-004+j1.93422655547454075756e-003
  +1.20905611114737192475e-004+j1.51993404132217996456e-003
  +1.27397391941492035827e-003+j3.22451576090956003318e-003
  -2.28294078436141745225e-002+j5.03079593734951160955e-003
  -9.93083707646165642687e-005+j8.52554052176512618469e-004
  +4.80088838690117790668e-005+j5.30051817937102404989e-004
  -3.66548462370658919163e-004+j1.29965008181208473495e-003
  +6.93868468303025937750e-007+j1.13788701399697635846e-005
  +1.34991589721891148242e-007+j1.03359650708943786390e-006
  +2.91537343716168314406e-008+j1.65097566988357510343e-007
  +7.49352513399324862236e-009+j3.51174845662238746870e-008
  +2.19548106592287014789e-009+j8.95803954120358442754e-009
  +7.10843800041551525367e-010+j2.59950368101978571267e-009
  +2.49102526345907670051e-010+j8.31905875702278721192e-010
  +9.31196576923185198708e-011+j2.87756492483753278999e-010
  +3.67444447841958234348e-011+j1.06093031388174991840e-010
  +1.51842157033145321415e-011+j4.12716655899937724919e-011
</dep>
<dep S[2,3] frequency>
  +1.69689318299731753967e-004+j4.49055068049468149131e-004
  +1.33854411387174482111e-003+j3.62142027008875472434e-004
  +1.06600530041940514195e-003-j7.73961444423681976801e-004
  +4.48953935848368128943e-004-j8.47307140839697594745e-004
  +1.65560772414309576809e-004-j7.05444756682646069955e-004
  +3.09477551988515271731e-005-j5.74439498825121881188e-004
  -3.98325632391275730789e-005-j4.72739128881811000293e-004
  -8.01159349531595444327e-005-j3.95180431114579061493e-004
  -1.04647838533315228646e-004-j3.35728752523783394342e-004
  -1.20788945261788923540e-004-j2.89851179365906662638e-004
  -1.32624111174481319406e-004-j2.54339074362881214716e-004
  -1.42672098713462878637e-004-j2.26934534773359146507e-004
  -1.52698886229741658677e-004-j2.06055257791578196134e-004
  -1.64175658269633890007e-004-j1.90620794742016596039e-004
  -1.78613489533446052806e-004-j1.79955682257971886530e-004
  -1.97915814146128069082e-004-j1.73757161238217462933e-004
  -2.24907303843329260630e-004-j1.72135778961154305372e-004
  -2.64349650917300080764e-004-j1.75773150191835367435e-004
  -3.25266638362361126206e-004-j1.86328592007298552520e-004
  -4.27274900640218764734e-004-j2.07494487227083917015e-004
  -6.22354368171891070630e-004-j2.48089018762682924756e-004
  -1.10572935636384594126e-003-j3.32409883712687318630e-004
  -3.70484954530516264609e-003-j3.87799434167490674266e-004
  +3.40802063920105308484e-003+j1.36993929417844845058e-003
  +1.40390549955058709097e-003+j2.87988848814782656682e-004
  +9.93585819368127988460e-004+j1.09413099860210464155e-004
  +8.56600271275615148675e-004+j1.17790303209052831532e-004
  +1.34480266942264988471e-003-j4.91320898591380373971e-005
  +1.56999578200061619924e-003-j9.82262765463013309483e-004
  -1.27550066052353619842e-004-j2.26920256997678246313e-003
  -9.35179573508073238089e-004-j7.26074990851449122119e-004
  -6.28605911908953151300e-004-j2.28078772848580617815e-004
  -4.45012257761019072895e-004-j8.49813097547169577590e-005
  -3.44250088919134146492e-004-j3.21199917914479071289e-005
  -2.90489829276290218753e-004-j2.01628129438286154236e-005
  -3.08007364440143543635e-004-j4.62820003225106424384e-005
  -4.57109670223244284656e-004+j4.10323296096943250641e-005
  -4.83325572898142172794e-004+j3.26297291462176195041e-004
  -1.75663912218091078582e-004+j6.64905204718304406082e-004
  +2.88362374352736975346e-004+j4.30871392455689299853e-004
  +2.70995116868541214943e-004+j1.48708823125849219030e-004
  +1.95156948074957204515e-004+j5.14715210972610062745e-005
  +1.45638025039929809622e-004+j1.62595346274487888283e-005
  +1.15602949145200472941e-004+j2.15235170558107769516e-006
  +9.82337374665585838767e-005-j1.39279563091412966409e-006
  +9.63654677403163849184e-005+j6.09187230680065469894e-006
  +1.41467213825194440850e-004+j8.31680612785958727666e-006
  +1.94706859422742988974e-004-j9.11974825055586886232e-005
  +1.10331037818034671761e-004-j2.43949225729334995619e-004
  -1.04839082860069436132e-004-j2.04943877927348569023e-004
  -1.20550775093841814082e-004-j6.77541695296054167531e-005
  -8.54857349253637692965e-005-j1.92588005021580373655e-005
  -6.20787373978646503424e-005-j3.38051033733607534217e-006
  -4.82527281359468597738e-005+j2.57527987089577436704e-006
  -4.01516362263513562126e-005+j4.55629434872289109802e-006
  -3.66545249513106568369e-005+j3.07776148695760403586e-006
  -4.54970014254684010932e-005-j3.88627351323220933366e-006
  -8.79948764458355015211e-005+j2.10856649975730384996e-005
  -6.12138638037738148446e-005+j1.15834949422911128196e-004
  +6.11755102711592933708e-005+j9.39127883970488898336e-005
  +5.76433789716104577790e-005+j2.22201191487653752440e-005
  +3.77730945380380956906e-005+j3.33915523905074668209e-006
  +2.67799125204814921972e-005-j1.81791558620441720549e-006
  +2.08554851508886156708e-005-j3.54308453109738158941e-006
  +1.76861244391033797221e-005-j4.00659948538048088203e-006
  +1.68803372753312438666e-005-j2.77972976474591946223e-006
  +2.73756287766597009026e-005+j2.16097225242797342550e-006
  +5.16649532051338485528e-005-j4.41783955035450985995e-005
  -3.52566338727384261283e-005-j6.05779610627242415927e-005
  -3.18620381686350286543e-005-j8.13005746638505605870e-006
  -1.86379080727774012799e-005+j6.56497822010261615119e-007
  -1.27550457716717758743e-005+j2.34496775343976787462e-006
  -1.00118832495648442670e-005+j2.83500077560679737703e-006
  -8.85127810477371424836e-006+j2.97372148734232552976e-006
